(1703560121.247259) can0 1826F456#010100
(1703560121.247259) can0 182756F4#D80F
(1703560121.247259) can0 1826F456#010100
(1703560121.247259) can0 1826F456#010100
(1703560121.247259) can0 182756F4#D80F
(1703560121.247259) can0 1826F456#010100
(1703560121.247259) can0 182756F4#D80F
(1703560121.247259) can0 1826F456#010100
(1703560121.247259) can0 182756F4#D80F
(1703560121.247259) can0 1826F456#010100
(1703560121.247259) can0 182756F4#D80F
(1703560121.247259) can0 1826F456#010100
(1703560121.247259) can0 182756F4#D80F
(1703560121.247259) can0 1826F456#010100
(1703560121.247259) can0 182756F4#D80F
(1703560121.247259) can0 1826F456#010100
(1703560121.247259) can0 182756F4#D80F
(1703560121.247259) can0 1826F456#010100
(1703560121.247259) can0 182756F4#D80F
(1703560121.247259) can0 1826F456#010100
(1703560121.247259) can0 182756F4#D80F
(1703560121.247259) can0 1826F456#010100
(1703560121.247259) can0 182756F4#D80F
(1703560121.247259) can0 1826F456#010100
(1703560121.247259) can0 182756F4#D80F
(1703560121.247259) can0 1826F456#010100
(1703560121.247259) can0 182756F4#D80F
(1703560121.247259) can0 1801F456#0000000000554120
(1703560121.247259) can0 1CEC56F4#10310007FF000200
(1703560121.247259) can0 1CECF456#110701FFFF000200
(1703560121.247259) can0 1CEB56F4#010101000608078A
(1703560121.247259) can0 1CEB56F4#020D4341544CFFFF
(1703560121.247259) can0 1CEB56F4#03FFFFFFFFFFFFFF
(1703560121.247259) can0 1CEB56F4#04FFFFFFFFFFFFFF
(1703560121.247259) can0 1CEB56F4#05FFFFFFFFFFFFFF
(1703560121.247259) can0 1CEB56F4#06FFFFFFFFFFFFFF
(1703560121.247259) can0 1CEB56F4#07FFFFFFFFFFFFFF
(1703560121.247259) can0 1CECF456#13310007FF000200
(1703560121.247259) can0 1801F456#AA00000000554120
(1703560121.247259) can0 1CEC56F4#10310007FF000200
(1703560121.247259) can0 1CECF456#110701FFFF000200
(1703560121.247259) can0 1CEB56F4#010101000608078A
(1703560121.247259) can0 1CEB56F4#020D4341544CFFFF
(1703560121.247259) can0 1CEB56F4#03FFFFFFFFFFFFFF
(1703560121.247259) can0 1CEB56F4#04FFFFFFFFFFFFFF
(1703560121.247259) can0 1CEB56F4#05FFFFFFFFFFFFFF
(1703560121.247259) can0 1CEB56F4#06FFFFFFFFFFFFFF
(1703560121.247259) can0 1CEB56F4#07FFFFFFFFFFFFFF
(1703560121.247259) can0 1CECF456#13310007FF000200
(1703560121.247259) can0 1CEC56F4#100D0002FF000600
(1703560121.247259) can0 1CECF456#110201FFFF000600
(1703560121.247259) can0 1CEB56F4#01A101D0077A02D8
(1703560121.247259) can0 1CEB56F4#020F695701900DFF
(1703560121.247259) can0 1CECF456#130D0002FF000600
(1703560121.247259) can0 1807F456#00000809071514
(1703560121.247259) can0 1808F456#9411D007F00A9A0F
(1703560121.247259) can0 100956F4#00
(1703560121.247259) can0 1808F456#9411D007F00A9A0F
(1703560121.247259) can0 100956F4#00
(1703560121.247259) can0 1808F456#9411D007F00A9A0F
(1703560121.247259) can0 1807F456#00000809071514
(1703560121.247259) can0 100956F4#00
(1703560121.247259) can0 1808F456#9411D007F00A9A0F
(1703560121.247259) can0 100956F4#00
(1703560121.247259) can0 1808F456#9411D007F00A9A0F
(1703560121.247259) can0 1807F456#00000809071514
(1703560121.247259) can0 1808F456#9411D007F00A9A0F
(1703560121.247259) can0 100956F4#00
(1703560121.247259) can0 1808F456#9411D007F00A9A0F
(1703560121.247259) can0 100956F4#00
(1703560121.247259) can0 1808F456#9411D007F00A9A0F
(1703560121.247259) can0 1807F456#00000809071514
(1703560121.247259) can0 100956F4#00
(1703560121.247259) can0 1808F456#9411D007F00A9A0F
(1703560121.247259) can0 100956F4#00
(1703560121.247259) can0 1808F456#9411D007F00A9A0F
(1703560121.247259) can0 1807F456#00000809071514
(1703560121.247259) can0 1808F456#9411D007F00A9A0F
(1703560121.247259) can0 100956F4#00
(1703560121.247259) can0 1808F456#9411D007F00A9A0F
(1703560121.247259) can0 100956F4#00
(1703560121.247259) can0 1808F456#9411D007F00A9A0F
(1703560121.247259) can0 1807F456#00000809071514
(1703560121.247259) can0 100956F4#AA
(1703560121.247259) can0 100AF456#00
(1703560121.247259) can0 100AF456#AA
(1703560121.247259) can0 100956F4#AA
(1703560121.247259) can0 181056F4#D80FD00702
(1703560121.247259) can0 1CEC56F4#10090002FF001100
(1703560121.247259) can0 1812F456#700DA00F000001
(1703560121.247259) can0 1CECF456#110201FFFF001100
(1703560121.247259) can0 1CEB56F4#01920DA00F6A7122
(1703560121.247259) can0 1CEB56F4#025802FFFFFFFFFF
(1703560121.247259) can0 181356F4#494F034D1A00D0
(1703560121.247259) can0 1CECF456#13090002FF001100
(1703560121.247259) can0 1812F456#700DA00F000001
(1703560121.247259) can0 181056F4#D80FD00702
(1703560121.247259) can0 1812F456#700DA00F000001
(1703560121.247259) can0 181056F4#D80FD00702
(1703560121.247259) can0 1812F456#700DA00F000001
(1703560121.247259) can0 181056F4#D80FD00702
(1703560121.247259) can0 1812F456#700DA00F000001
(1703560121.247259) can0 181056F4#D80FD00702
(1703560121.247259) can0 1812F456#700DA00F000001
(1703560121.247259) can0 181056F4#D80FD00702
(1703560121.247259) can0 1CEC56F4#10090002FF001100
(1703560121.247259) can0 1CECF456#110201FFFF001100
(1703560121.247259) can0 1CEB56F4#01900DB90F690122
(1703560121.247259) can0 1CEB56F4#025600FFFFFFFFFF
(1703560121.247259) can0 181356F4#054F034D1A00D0
(1703560121.247259) can0 1CECF456#13090002FF001100
(1703560121.247259) can0 1812F456#700DA00F000001
(1703560121.247259) can0 181056F4#D80FD00702
(1703560121.247259) can0 1812F456#700DA00F000001
(1703560121.247259) can0 181056F4#D80FD00702
(1703560121.247259) can0 1812F456#700DA00F000001
(1703560121.247259) can0 181056F4#D80FD00702
(1703560121.247259) can0 1812F456#700DA00F000001
(1703560121.247259) can0 181056F4#D80FD00702
(1703560121.247259) can0 1812F456#700DA00F000001
(1703560121.247259) can0 181056F4#D80FD00702
(1703560121.247259) can0 1CEC56F4#10090002FF001100
(1703560121.247259) can0 1CECF456#110201FFFF001100
(1703560121.247259) can0 1CEB56F4#01900DAD0F694122
(1703560121.247259) can0 1CEB56F4#025600FFFFFFFFFF
(1703560121.247259) can0 181356F4#254F034D1A00D0
(1703560121.247259) can0 1CECF456#13090002FF001100
(1703560121.247259) can0 1812F456#700DA00F000001
(1703560121.247259) can0 181056F4#D80FD00702
(1703560121.247259) can0 1812F456#700DA00F000001
(1703560121.247259) can0 181056F4#D80FD00702
(1703560121.247259) can0 1812F456#700DA00F000001
(1703560121.247259) can0 181056F4#D80FD00702
(1703560121.247259) can0 1812F456#700DA00F000001
(1703560121.247259) can0 181056F4#D80FD00702
(1703560121.247259) can0 1812F456#700DA00F000001
(1703560121.247259) can0 181056F4#D80FD00702
(1703560121.247259) can0 1CEC56F4#10090002FF001100
(1703560121.247259) can0 1CECF456#110201FFFF001100
(1703560121.247259) can0 1CEB56F4#01900DAD0F694122
(1703560121.247259) can0 1CEB56F4#025600FFFFFFFFFF
(1703560121.247259) can0 181356F4#254F034D1A00D0
(1703560121.247259) can0 1CECF456#13090002FF001100
(1703560121.247259) can0 1812F456#700DA00F000001
(1703560121.247259) can0 181056F4#D80FD00702
(1703560121.247259) can0 1812F456#700DA00F000001
(1703560121.247259) can0 181056F4#D80FD00702
(1703560121.247259) can0 1812F456#700DA00F000001
(1703560121.247259) can0 181056F4#D80FD00702
(1703560121.247259) can0 1812F456#700DA00F000001
(1703560121.247259) can0 181056F4#D80FD00702
(1703560121.247259) can0 1812F456#700DA00F000001
(1703560121.247259) can0 181056F4#D80FD00702
(1703560121.247259) can0 1CEC56F4#10090002FF001100
(1703560121.247259) can0 1CECF456#110201FFFF001100
(1703560121.247259) can0 1CEB56F4#01900DAE0F691122
(1703560121.247259) can0 1CEB56F4#025600FFFFFFFFFF
(1703560121.247259) can0 181356F4#0D4F034D1A00D0
(1703560121.247259) can0 1CECF456#13090002FF001100
(1703560121.247259) can0 1812F456#700DA00F000001
(1703560121.247259) can0 181056F4#D80FD00702
(1703560121.247259) can0 1812F456#700DA00F000001
(1703560121.247259) can0 181056F4#D80FD00702
(1703560121.247259) can0 1812F456#700DA00F000001
(1703560121.247259) can0 181056F4#D80FD00702
(1703560121.247259) can0 1812F456#700DA00F000001
(1703560121.247259) can0 181056F4#D80FD00702
(1703560121.247259) can0 1812F456#700DA00F000001
(1703560121.247259) can0 181056F4#D80FD00702
(1703560121.247259) can0 1CEC56F4#10090002FF001100
(1703560121.247259) can0 1CECF456#110201FFFF001100
(1703560121.247259) can0 1CEB56F4#01900DAE0F691122
(1703560121.247259) can0 1CEB56F4#025600FFFFFFFFFF
(1703560121.247259) can0 181356F4#0D4F034D1A00D0
(1703560121.247259) can0 1CECF456#13090002FF001100
(1703560121.247259) can0 1812F456#700DA00F000001
(1703560121.247259) can0 181056F4#D80FD00702
(1703560121.247259) can0 1812F456#700DA00F000001
(1703560121.247259) can0 181056F4#D80FD00702
(1703560121.247259) can0 1812F456#700DA00F000001
(1703560121.247259) can0 181056F4#D80FD00702
(1703560121.247259) can0 1812F456#700DA00F000001
(1703560121.247259) can0 181056F4#D80FD00702
(1703560121.247259) can0 1812F456#700DA00F000001
(1703560121.247259) can0 181056F4#D80FD00702
(1703560121.247259) can0 1CEC56F4#10090002FF001100
(1703560121.247259) can0 1CECF456#110201FFFF001100
(1703560121.247259) can0 1CEB56F4#01900DAE0F697122
(1703560121.247259) can0 1CEB56F4#025600FFFFFFFFFF
(1703560121.247259) can0 181356F4#494F034D1A00D0
(1703560121.247259) can0 1CECF456#13090002FF001100
(1703560121.247259) can0 1812F456#700DA00F000001
(1703560121.247259) can0 181056F4#D80FD00702
(1703560121.247259) can0 1812F456#700DA00F000001
(1703560121.247259) can0 181056F4#D80FD00702
(1703560121.247259) can0 1812F456#700DA00F000001
(1703560121.247259) can0 181056F4#D80FD00702
(1703560121.247259) can0 1812F456#700DA00F000001
(1703560121.247259) can0 181056F4#D80FD00702
(1703560121.247259) can0 1812F456#700DA00F000001
(1703560121.247259) can0 181056F4#D80FD00702
(1703560121.247259) can0 1CEC56F4#10090002FF001100
(1703560121.247259) can0 1CECF456#110201FFFF001100
(1703560121.247259) can0 1CEB56F4#01900DAD0F697122
(1703560121.247259) can0 1CEB56F4#025600FFFFFFFFFF
(1703560121.247259) can0 181356F4#494F034D1A00D0
(1703560121.247259) can0 1CECF456#13090002FF001100
(1703560121.247259) can0 1812F456#700DA00F000001
(1703560121.247259) can0 181056F4#D80FD00702
(1703560121.247259) can0 1812F456#700DA00F000001
(1703560121.247259) can0 181056F4#D80FD00702
(1703560121.247259) can0 1812F456#700DA00F000001
(1703560121.247259) can0 181056F4#D80FD00702
(1703560121.247259) can0 1812F456#700DA00F000001
(1703560121.247259) can0 181056F4#D80FD00702
(1703560121.247259) can0 1812F456#700DA00F000001
(1703560121.247259) can0 181056F4#D80FD00702
(1703560121.247259) can0 1CEC56F4#10090002FF001100
(1703560121.247259) can0 1CECF456#110201FFFF001100
(1703560121.247259) can0 1CEB56F4#01900DAD0F694122
(1703560121.247259) can0 1CEB56F4#025600FFFFFFFFFF
(1703560121.247259) can0 181356F4#254F034D1A00D0
(1703560121.247259) can0 1CECF456#13090002FF001100
(1703560121.247259) can0 1812F456#700DA00F000001
(1703560121.247259) can0 181056F4#D80FD00702
(1703560121.247259) can0 1812F456#700DA00F000001
(1703560121.247259) can0 181056F4#D80FD00702
(1703560121.247259) can0 1812F456#700DA00F000001
(1703560121.247259) can0 181056F4#D80FD00702
(1703560121.247259) can0 1812F456#700DA00F000001
(1703560121.247259) can0 181056F4#D80FD00702
(1703560121.247259) can0 1812F456#700DA00F000001
(1703560121.247259) can0 181056F4#D80FD00702
(1703560121.247259) can0 1CEC56F4#10090002FF001100
(1703560121.247259) can0 1CECF456#110201FFFF001100
(1703560121.247259) can0 1CEB56F4#01900DAD0F692122
(1703560121.247259) can0 1CEB56F4#025600FFFFFFFFFF
(1703560121.247259) can0 181356F4#174F034D1A00D0
(1703560121.247259) can0 1CECF456#13090002FF001100
(1703560121.247259) can0 1812F456#700DA00F000001
(1703560121.247259) can0 181056F4#D80FD00702
(1703560121.247259) can0 1812F456#700DA00F000001
(1703560121.247259) can0 181056F4#D80FD00702
(1703560121.247259) can0 1812F456#700DA00F000001
(1703560121.247259) can0 181056F4#D80FD00702
(1703560121.247259) can0 1812F456#700DA00F000001
(1703560121.247259) can0 181056F4#D80FD00702
(1703560121.247259) can0 1812F456#700DA00F000001
(1703560121.247259) can0 181056F4#D80FD00702
(1703560121.247259) can0 1CEC56F4#10090002FF001100
(1703560121.247259) can0 1CECF456#110201FFFF001100
(1703560121.247259) can0 1CEB56F4#01900DAD0F694122
(1703560121.247259) can0 1CEB56F4#025600FFFFFFFFFF
(1703560121.247259) can0 181356F4#254F034D1A00D0
(1703560121.247259) can0 1CECF456#13090002FF001100
(1703560121.247259) can0 1812F456#700DA00F000001
(1703560121.247259) can0 181056F4#D80FD00702
(1703560121.247259) can0 1812F456#700DA00F000001
(1703560121.247259) can0 181056F4#D80FD00702
(1703560121.247259) can0 1812F456#700DA00F000001
(1703560121.247259) can0 181056F4#D80FD00702
(1703560121.247259) can0 1812F456#700DA00F000001
(1703560121.247259) can0 181056F4#D80FD00702
(1703560121.247259) can0 1812F456#700DA00F000001
(1703560121.247259) can0 181056F4#D80FD00702
(1703560121.247259) can0 1CEC56F4#10090002FF001100
(1703560121.247259) can0 1CECF456#110201FFFF001100
(1703560121.247259) can0 1CEB56F4#01900DAC0F693122
(1703560121.247259) can0 1CEB56F4#025600FFFFFFFFFF
(1703560121.247259) can0 181356F4#224F034D1A00D0
(1703560121.247259) can0 1CECF456#13090002FF001100
(1703560121.247259) can0 1812F456#700DA00F000001
(1703560121.247259) can0 181056F4#D80FD00702
(1703560121.247259) can0 1812F456#700DA00F000001
(1703560121.247259) can0 181056F4#D80FD00702
(1703560121.247259) can0 1812F456#700DA00F000001
(1703560121.247259) can0 181056F4#D80FD00702
(1703560121.247259) can0 1812F456#700DA00F000001
(1703560121.247259) can0 181056F4#D80FD00702
(1703560121.247259) can0 1812F456#700DA00F000001
(1703560121.247259) can0 181056F4#D80FD00702
(1703560121.247259) can0 1CEC56F4#10090002FF001100
(1703560121.247259) can0 1CECF456#110201FFFF001100
(1703560121.247259) can0 1CEB56F4#01900DAC0F690122
(1703560121.247259) can0 1CEB56F4#025600FFFFFFFFFF
(1703560121.247259) can0 181356F4#084F034D1A00D0
(1703560121.247259) can0 1CECF456#13090002FF001100
(1703560121.247259) can0 1812F456#700DA00F000001
(1703560121.247259) can0 181056F4#D80FD00702
(1703560121.247259) can0 1812F456#700DA00F000001
(1703560121.247259) can0 181056F4#D80FD00702
(1703560121.247259) can0 1812F456#700DA00F000001
(1703560121.247259) can0 181056F4#D80FD00702
(1703560121.247259) can0 1812F456#700DA00F000001
(1703560121.247259) can0 181056F4#D80FD00702
(1703560121.247259) can0 1812F456#700DA00F000001
(1703560121.247259) can0 181056F4#D80FD00702
(1703560121.247259) can0 1CEC56F4#10090002FF001100
(1703560121.247259) can0 1CECF456#110201FFFF001100
(1703560121.247259) can0 1CEB56F4#01900DAC0F690122
(1703560121.247259) can0 1CEB56F4#025600FFFFFFFFFF
(1703560121.247259) can0 181356F4#034F034D1A00D0
(1703560121.247259) can0 1CECF456#13090002FF001100
(1703560121.247259) can0 1812F456#700DA00F000001
(1703560121.247259) can0 181056F4#D80FD00702
(1703560121.247259) can0 1812F456#700DA00F000001
(1703560121.247259) can0 181056F4#D80FD00702
(1703560121.247259) can0 1812F456#700DA00F000001
(1703560121.247259) can0 181056F4#D80FD00702
(1703560121.247259) can0 1812F456#700DA00F000001
(1703560121.247259) can0 181056F4#D80FD00702
(1703560121.247259) can0 1812F456#700DA00F000001
(1703560121.247259) can0 181056F4#D80FD00702
(1703560121.247259) can0 1CEC56F4#10090002FF001100
(1703560121.247259) can0 1CECF456#110201FFFF001100
(1703560121.247259) can0 1CEB56F4#01900DAC0F697122
(1703560121.247259) can0 1CEB56F4#025600FFFFFFFFFF
(1703560121.247259) can0 181356F4#494F034D1A00D0
(1703560121.247259) can0 1CECF456#13090002FF001100
(1703560121.247259) can0 1812F456#700DA00F000001
(1703560121.247259) can0 181056F4#D80FD00702
(1703560121.247259) can0 1812F456#700DA00F000001
(1703560121.247259) can0 181056F4#D80FD00702
(1703560121.247259) can0 1812F456#700DA00F000001
(1703560121.247259) can0 181056F4#D80FD00702
(1703560121.247259) can0 1812F456#700DA00F000001
(1703560121.247259) can0 181056F4#D80FD00702
(1703560121.247259) can0 1812F456#700DA00F000001
(1703560121.247259) can0 181056F4#D80FD00702
(1703560121.247259) can0 1CEC56F4#10090002FF001100
(1703560121.247259) can0 1CECF456#110201FFFF001100
(1703560121.247259) can0 1CEB56F4#01900DAC0F694122
(1703560121.247259) can0 1CEB56F4#025600FFFFFFFFFF
(1703560121.247259) can0 181356F4#254F034D1A00D0
(1703560121.247259) can0 1CECF456#13090002FF001100
(1703560121.247259) can0 1812F456#700DA00F000001
(1703560121.247259) can0 181056F4#D80FD00702
(1703560121.247259) can0 1812F456#700DA00F000001
(1703560121.247259) can0 181056F4#D80FD00702
(1703560121.247259) can0 1812F456#700DA00F000001
(1703560121.247259) can0 181056F4#D80FD00702
(1703560121.247259) can0 1812F456#700DA00F000001
(1703560121.247259) can0 181056F4#D80FD00702
(1703560121.247259) can0 1812F456#700DA00F000001
(1703560121.247259) can0 181056F4#D80FD00702
(1703560121.247259) can0 1CEC56F4#10090002FF001100
(1703560121.247259) can0 1CECF456#110201FFFF001100
(1703560121.247259) can0 1CEB56F4#01900DAB0F696122
(1703560121.247259) can0 1CEB56F4#025600FFFFFFFFFF
(1703560121.247259) can0 181356F4#474F034D1A00D0
(1703560121.247259) can0 1CECF456#13090002FF001100
(1703560121.247259) can0 1812F456#700DA00F000001
(1703560121.247259) can0 181056F4#D80FD00702
(1703560121.247259) can0 1812F456#700DA00F000001
(1703560121.247259) can0 181056F4#D80FD00702
(1703560121.247259) can0 1812F456#700DA00F000001
(1703560121.247259) can0 181056F4#D80FD00702
(1703560121.247259) can0 1812F456#700DA00F000001
(1703560121.247259) can0 181056F4#D80FD00702
(1703560121.247259) can0 1812F456#700DA00F000001
(1703560121.247259) can0 181056F4#D80FD00702
(1703560121.247259) can0 1CEC56F4#10090002FF001100
(1703560121.247259) can0 1CECF456#110201FFFF001100
(1703560121.247259) can0 1CEB56F4#01900DAB0F692122
(1703560121.247259) can0 1CEB56F4#025600FFFFFFFFFF
(1703560121.247259) can0 181356F4#174F034D1A00D0
(1703560121.247259) can0 1CECF456#13090002FF001100
(1703560121.247259) can0 1812F456#700DA00F000001
(1703560121.247259) can0 181056F4#D80FD00702
(1703560121.247259) can0 1812F456#700DA00F000001
(1703560121.247259) can0 181056F4#D80FD00702
(1703560121.247259) can0 1812F456#700DA00F000001
(1703560121.247259) can0 181056F4#D80FD00702
(1703560121.247259) can0 1812F456#700DA00F000001
(1703560121.247259) can0 181056F4#D80FD00702
(1703560121.247259) can0 1812F456#700DA00F000001
(1703560121.247259) can0 181056F4#D80FD00702
(1703560121.247259) can0 1CEC56F4#10090002FF001100
(1703560121.247259) can0 1CECF456#110201FFFF001100
(1703560121.247259) can0 1CEB56F4#01960D240F6A0122
(1703560121.247259) can0 1CEB56F4#025600FFFFFFFFFF
(1703560121.247259) can0 181356F4#084F034D1A00D0
(1703560121.247259) can0 1CECF456#13090002FF001100
(1703560121.247259) can0 1812F456#700DA00F000001
(1703560121.247259) can0 181056F4#D80FD00702
(1703560121.247259) can0 1812F456#700DA00F000001
(1703560121.247259) can0 181056F4#D80FD00702
(1703560121.247259) can0 1812F456#700DA00F000001
(1703560121.247259) can0 181056F4#D80FD00702
(1703560121.247259) can0 1812F456#700D5A0F000001
(1703560121.247259) can0 181056F4#D80FD00702
(1703560121.247259) can0 1812F456#700D5A0F000001
(1703560121.247259) can0 181056F4#D80FD00702
(1703560121.247259) can0 1CEC56F4#10090002FF001100
(1703560121.247259) can0 1CECF456#110201FFFF001100
(1703560121.247259) can0 1CEB56F4#01960D240F6A0122
(1703560121.247259) can0 1CEB56F4#025600FFFFFFFFFF
(1703560121.247259) can0 181356F4#084F034D1A00D0
(1703560121.247259) can0 1CECF456#13090002FF001100
(1703560121.247259) can0 1812F456#700D5A0F000001
(1703560121.247259) can0 181056F4#D80FD00702
(1703560121.247259) can0 1812F456#700D5A0F000001
(1703560121.247259) can0 181056F4#D80FD00702
(1703560121.247259) can0 1812F456#700D5A0F000001
(1703560121.247259) can0 181056F4#D80FD00702
(1703560121.247259) can0 1812F456#700D5A0F000001
(1703560121.247259) can0 181056F4#D80FD00702
(1703560121.247259) can0 1812F456#700D5A0F000001
(1703560121.247259) can0 181056F4#D80FD00702
(1703560121.247259) can0 1CEC56F4#10090002FF001100
(1703560121.247259) can0 1CECF456#110201FFFF001100
(1703560121.247259) can0 1CEB56F4#01980D0F0F6A0122
(1703560121.247259) can0 1CEB56F4#025600FFFFFFFFFF
(1703560121.247259) can0 181356F4#084F034D1A00D0
(1703560121.247259) can0 1CECF456#13090002FF001100
(1703560121.247259) can0 1812F456#700D5A0F000001
(1703560121.247259) can0 181056F4#D80FD00702
(1703560121.247259) can0 1812F456#700D5A0F000001
(1703560121.247259) can0 181056F4#D80FD00702
(1703560121.247259) can0 1812F456#700D5A0F000001
(1703560121.247259) can0 181056F4#D80FD00702
(1703560121.247259) can0 1812F456#700D5A0F000001
(1703560121.247259) can0 181056F4#D80FD00702
(1703560121.247259) can0 1812F456#700D5A0F000001
(1703560121.247259) can0 181056F4#D80FD00702
(1703560121.247259) can0 1CEC56F4#10090002FF001100
(1703560121.247259) can0 1CECF456#110201FFFF001100
(1703560121.247259) can0 1CEB56F4#01990DDD0E6A0122
(1703560121.247259) can0 1CEB56F4#025600FFFFFFFFFF
(1703560121.247259) can0 181356F4#084F034D1A00D0
(1703560121.247259) can0 1CECF456#13090002FF001100
(1703560121.247259) can0 1812F456#7A0DEC0E000001
(1703560121.247259) can0 181056F4#D80FD00702
(1703560121.247259) can0 1812F456#7A0DEC0E000001
(1703560121.247259) can0 181056F4#D80FD00702
(1703560121.247259) can0 1812F456#7A0DEC0E000001
(1703560121.247259) can0 181056F4#D80FD00702
(1703560121.247259) can0 1812F456#7A0DEC0E000001
(1703560121.247259) can0 181056F4#D80FD00702
(1703560121.247259) can0 1812F456#7A0DEC0E000001
(1703560121.247259) can0 181056F4#D80FD00702
(1703560121.247259) can0 1CEC56F4#10090002FF001100
(1703560121.247259) can0 1CECF456#110201FFFF001100
(1703560121.247259) can0 1CEB56F4#01990DCB0E6B0122
(1703560121.247259) can0 1CEB56F4#025600FFFFFFFFFF
(1703560121.247259) can0 181356F4#084F034D1A00D0
(1703560121.247259) can0 1CECF456#13090002FF001100
(1703560121.247259) can0 1812F456#7A0DEC0E000001
(1703560121.247259) can0 181056F4#D80FD00702
(1703560121.247259) can0 1812F456#7A0DEC0E000001
(1703560121.247259) can0 181056F4#D80FD00702
(1703560121.247259) can0 1812F456#7A0DEC0E000001
(1703560121.247259) can0 181056F4#D80FD00702
(1703560121.247259) can0 1812F456#7A0DEC0E000001
(1703560121.247259) can0 181056F4#D80FD00702
(1703560121.247259) can0 1812F456#7A0DEC0E000001
(1703560121.247259) can0 181056F4#D80FD00702
(1703560121.247259) can0 1CEC56F4#10090002FF001100
(1703560121.247259) can0 1CECF456#110201FFFF001100
(1703560121.247259) can0 1CEB56F4#019D0DA10E6B0122
(1703560121.247259) can0 1CEB56F4#025600FFFFFFFFFF
(1703560121.247259) can0 181356F4#084F034D1A00D0
(1703560121.247259) can0 1CECF456#13090002FF001100
(1703560121.247259) can0 1812F456#7A0DEC0E000001
(1703560121.247259) can0 181056F4#D80FD00702
(1703560121.247259) can0 1812F456#7A0DEC0E000001
(1703560121.247259) can0 181056F4#D80FD00702
(1703560121.247259) can0 1812F456#7A0DEC0E000001
(1703560121.247259) can0 181056F4#D80FD00702
(1703560121.247259) can0 1812F456#7A0DEC0E000001
(1703560121.247259) can0 181056F4#D80FD00702
(1703560121.247259) can0 1812F456#7A0DEC0E000001
(1703560121.247259) can0 181056F4#D80FD00702
(1703560121.247259) can0 1CEC56F4#10090002FF001100
(1703560121.247259) can0 1CECF456#110201FFFF001100
(1703560121.247259) can0 1CEB56F4#019D0D900E6B0122
(1703560121.247259) can0 1CEB56F4#025600FFFFFFFFFF
(1703560121.247259) can0 181356F4#084F034D1A00D0
(1703560121.247259) can0 1CECF456#13090002FF001100
(1703560121.247259) can0 1812F456#7A0DA60E000001
(1703560121.247259) can0 181056F4#D80FD00702
(1703560121.247259) can0 1812F456#7A0DA60E000001
(1703560121.247259) can0 181056F4#D80FD00702
(1703560121.247259) can0 1812F456#7A0DA60E000001
(1703560121.247259) can0 181056F4#D80FD00702
(1703560121.247259) can0 1812F456#7A0DA60E000001
(1703560121.247259) can0 181056F4#D80FD00702
(1703560121.247259) can0 1812F456#7A0DA60E000001
(1703560121.247259) can0 181056F4#D80FD00702
(1703560121.247259) can0 1CEC56F4#10090002FF001100
(1703560121.247259) can0 1CECF456#110201FFFF001100
(1703560121.247259) can0 1CEB56F4#019E0D900E6B0122
(1703560121.247259) can0 1CEB56F4#025600FFFFFFFFFF
(1703560121.247259) can0 181356F4#084F034D1A00D0
(1703560121.247259) can0 1CECF456#13090002FF001100
(1703560121.247259) can0 1812F456#7A0DA60E000001
(1703560121.247259) can0 181056F4#D80FD00702
(1703560121.247259) can0 1812F456#7A0DA60E000001
(1703560121.247259) can0 181056F4#D80FD00702
(1703560121.247259) can0 1812F456#7A0DA60E000001
(1703560121.247259) can0 181056F4#D80FD00702
(1703560121.247259) can0 1812F456#7A0DA60E000001
(1703560121.247259) can0 181056F4#D80FD00702
(1703560121.247259) can0 1812F456#7A0DA60E000001
(1703560121.247259) can0 181056F4#D80FD00702
(1703560121.247259) can0 1CEC56F4#10090002FF001100
(1703560121.247259) can0 1CECF456#110201FFFF001100
(1703560121.247259) can0 1CEB56F4#019D0D8F0E6B0122
(1703560121.247259) can0 1CEB56F4#025600FFFFFFFFFF
(1703560121.247259) can0 181356F4#084F034D1A00D0
(1703560121.247259) can0 1CECF456#13090002FF001100
(1703560121.247259) can0 1812F456#7A0DA60E000001
(1703560121.247259) can0 181056F4#D80FD00702
(1703560121.247259) can0 1812F456#7A0DA60E000001
(1703560121.247259) can0 181056F4#D80FD00702
(1703560121.247259) can0 1812F456#7A0D880E000001
(1703560121.247259) can0 181056F4#D80FD00702
(1703560121.247259) can0 1812F456#7A0D880E000001
(1703560121.247259) can0 181056F4#D80FD00702
(1703560121.247259) can0 1812F456#7A0D880E000001
(1703560121.247259) can0 181056F4#D80FD00702
(1703560121.247259) can0 1CEC56F4#10090002FF001100
(1703560121.247259) can0 1CECF456#110201FFFF001100
(1703560121.247259) can0 1CEB56F4#019D0D8F0E6B0122
(1703560121.247259) can0 1CEB56F4#025600FFFFFFFFFF
(1703560121.247259) can0 181356F4#084F034D1A00D0
(1703560121.247259) can0 1CECF456#13090002FF001100
(1703560121.247259) can0 1812F456#7A0D880E000001
(1703560121.247259) can0 181056F4#D80FD00702
(1703560121.247259) can0 1812F456#7A0D880E000001
(1703560121.247259) can0 181056F4#D80FD00702
(1703560121.247259) can0 1812F456#7A0D880E000001
(1703560121.247259) can0 181056F4#D80FD00702
(1703560121.247259) can0 1812F456#7A0D880E000001
(1703560121.247259) can0 181056F4#D80FD00702
(1703560121.247259) can0 1812F456#7A0D880E000001
(1703560121.247259) can0 181056F4#D80FD00702
(1703560121.247259) can0 1CEC56F4#10090002FF001100
(1703560121.247259) can0 1CECF456#110201FFFF001100
(1703560121.247259) can0 1CEB56F4#019E0D900E6B0122
(1703560121.247259) can0 1CEB56F4#025600FFFFFFFFFF
(1703560121.247259) can0 181356F4#084F034D1A00D0
(1703560121.247259) can0 1CECF456#13090002FF001100
(1703560121.247259) can0 1812F456#7A0D880E000001
(1703560121.247259) can0 181056F4#D80FD00702
(1703560121.247259) can0 1812F456#7A0D880E000001
(1703560121.247259) can0 181056F4#D80FD00702
(1703560121.247259) can0 1812F456#7A0D880E000001
(1703560121.247259) can0 181056F4#D80FD00702
(1703560121.247259) can0 1812F456#7A0D880E000001
(1703560121.247259) can0 181056F4#D80FD00702
(1703560121.247259) can0 1812F456#7A0D880E000001
(1703560121.247259) can0 181056F4#D80FD00702
(1703560121.247259) can0 1CEC56F4#10090002FF001100
(1703560121.247259) can0 1CECF456#110201FFFF001100
(1703560121.247259) can0 1CEB56F4#019E0D8F0E6B4122
(1703560121.247259) can0 1CEB56F4#025600FFFFFFFFFF
(1703560121.247259) can0 181356F4#284F034D1A00D0
(1703560121.247259) can0 1CECF456#13090002FF001100
(1703560121.247259) can0 1812F456#7A0D880E000001
(1703560121.247259) can0 181056F4#D80FD00702
(1703560121.247259) can0 1812F456#7A0D880E000001
(1703560121.247259) can0 181056F4#D80FD00702
(1703560121.247259) can0 1812F456#7A0D880E000001
(1703560121.247259) can0 181056F4#D80FD00702
(1703560121.247259) can0 1812F456#7A0D880E000001
(1703560121.247259) can0 181056F4#D80FD00702
(1703560121.247259) can0 1812F456#7A0D880E000001
(1703560121.247259) can0 181056F4#D80FD00702
(1703560121.247259) can0 1CEC56F4#10090002FF001100
(1703560121.247259) can0 1CECF456#110201FFFF001100
(1703560121.247259) can0 1CEB56F4#019E0D900E6B0122
(1703560121.247259) can0 1CEB56F4#025600FFFFFFFFFF
(1703560121.247259) can0 181356F4#084F034D1A00D0
(1703560121.247259) can0 1CECF456#13090002FF001100
(1703560121.247259) can0 1812F456#7A0D880E000001
(1703560121.247259) can0 181056F4#D80FD00702
(1703560121.247259) can0 1812F456#7A0D880E000001
(1703560121.247259) can0 181056F4#D80FD00702
(1703560121.247259) can0 1812F456#7A0D880E000001
(1703560121.247259) can0 181056F4#D80FD00702
(1703560121.247259) can0 1812F456#7A0D880E000001
(1703560121.247259) can0 181056F4#D80FD00702
(1703560121.247259) can0 1812F456#7A0D880E000001
(1703560121.247259) can0 181056F4#D80FD00702
(1703560121.247259) can0 1CEC56F4#10090002FF001100
(1703560121.247259) can0 1CECF456#110201FFFF001100
(1703560121.247259) can0 1CEB56F4#019E0D8E0E6B0122
(1703560121.247259) can0 1CEB56F4#025600FFFFFFFFFF
(1703560121.247259) can0 181356F4#084F034D1A00D0
(1703560121.247259) can0 1CECF456#13090002FF001100
(1703560121.247259) can0 1812F456#7A0D880E000001
(1703560121.247259) can0 181056F4#D80FD00702
(1703560121.247259) can0 1812F456#7A0D7E0E000001
(1703560121.247259) can0 181056F4#D80FD00702
(1703560121.247259) can0 1812F456#7A0D7E0E000001
(1703560121.247259) can0 181056F4#D80FD00702
(1703560121.247259) can0 1812F456#7A0D7E0E000001
(1703560121.247259) can0 181056F4#D80FD00702
(1703560121.247259) can0 1812F456#7A0D7E0E000001
(1703560121.247259) can0 181056F4#D80FD00702
(1703560121.247259) can0 1CEC56F4#10090002FF001100
(1703560121.247259) can0 1CECF456#110201FFFF001100
(1703560121.247259) can0 1CEB56F4#01A10D400E6B0122
(1703560121.247259) can0 1CEB56F4#025600FFFFFFFFFF
(1703560121.247259) can0 181356F4#084F034D1A00D0
(1703560121.247259) can0 1CECF456#13090002FF001100
(1703560121.247259) can0 1812F456#7A0D7E0E000001
(1703560121.247259) can0 181056F4#D80FD00702
(1703560121.247259) can0 1812F456#7A0D7E0E000001
(1703560121.247259) can0 181056F4#D80FD00702
(1703560121.247259) can0 1812F456#7A0D7E0E000001
(1703560121.247259) can0 181056F4#D80FD00702
(1703560121.247259) can0 1812F456#7A0D7E0E000001
(1703560121.247259) can0 181056F4#D80FD00702
(1703560121.247259) can0 1812F456#7A0D7E0E000001
(1703560121.247259) can0 181056F4#D80FD00702
(1703560121.247259) can0 1CEC56F4#10090002FF001100
(1703560121.247259) can0 1CECF456#110201FFFF001100
(1703560121.247259) can0 1CEB56F4#01A30D210E6C0122
(1703560121.247259) can0 1CEB56F4#025600FFFFFFFFFF
(1703560121.247259) can0 181356F4#084F034D1A00D0
(1703560121.247259) can0 1CECF456#13090002FF001100
(1703560121.247259) can0 1812F456#7A0D7E0E000001
(1703560121.247259) can0 181056F4#D80FD00702
(1703560121.247259) can0 1812F456#7A0D7E0E000001
(1703560121.247259) can0 181056F4#D80FD00702
(1703560121.247259) can0 1812F456#7A0D7E0E000001
(1703560121.247259) can0 181056F4#D80FD00702
(1703560121.247259) can0 1812F456#840D240E000001
(1703560121.247259) can0 181056F4#D80FD00702
(1703560121.247259) can0 1812F456#840D240E000001
(1703560121.247259) can0 181056F4#D80FD00702
(1703560121.247259) can0 1CEC56F4#10090002FF001100
(1703560121.247259) can0 1CECF456#110201FFFF001100
(1703560121.247259) can0 1CEB56F4#01A30D0D0E6C0122
(1703560121.247259) can0 1CEB56F4#025600FFFFFFFFFF
(1703560121.247259) can0 181356F4#084F034D1A00D0
(1703560121.247259) can0 1CECF456#13090002FF001100
(1703560121.247259) can0 1812F456#840D240E000001
(1703560121.247259) can0 181056F4#D80FD00702
(1703560121.247259) can0 1812F456#840D240E000001
(1703560121.247259) can0 181056F4#D80FD00702
(1703560121.247259) can0 1812F456#840D240E000001
(1703560121.247259) can0 181056F4#D80FD00702
(1703560121.247259) can0 1812F456#840D240E000001
(1703560121.247259) can0 181056F4#D80FD00702
(1703560121.247259) can0 1812F456#840D240E000001
(1703560121.247259) can0 181056F4#D80FD00702
(1703560121.247259) can0 1CEC56F4#10090002FF001100
(1703560121.247259) can0 1CECF456#110201FFFF001100
(1703560121.247259) can0 1CEB56F4#01A60DEB0D6C0122
(1703560121.247259) can0 1CEB56F4#025600FFFFFFFFFF
(1703560121.247259) can0 181356F4#084F034D1A00D0
(1703560121.247259) can0 1CECF456#13090002FF001100
(1703560121.247259) can0 1812F456#840D240E000001
(1703560121.247259) can0 181056F4#D80FD00702
(1703560121.247259) can0 1812F456#840D240E000001
(1703560121.247259) can0 181056F4#D80FD00702
(1703560121.247259) can0 1812F456#840D240E000001
(1703560121.247259) can0 181056F4#D80FD00702
(1703560121.247259) can0 1812F456#840D240E000001
(1703560121.247259) can0 181056F4#D80FD00702
(1703560121.247259) can0 1812F456#840D240E000001
(1703560121.247259) can0 181056F4#D80FD00702
(1703560121.247259) can0 1CEC56F4#10090002FF001100
(1703560121.247259) can0 1CECF456#110201FFFF001100
(1703560121.247259) can0 1CEB56F4#01A80DD30D6C4122
(1703560121.247259) can0 1CEB56F4#025600FFFFFFFFFF
(1703560121.247259) can0 181356F4#284F034D1A00D0
(1703560121.247259) can0 1CECF456#13090002FF001100
(1703560121.247259) can0 1812F456#840D240E000001
(1703560121.247259) can0 181056F4#D80FD00702
(1703560121.247259) can0 1812F456#840D240E000001
(1703560121.247259) can0 181056F4#D80FD00702
(1703560121.247259) can0 1812F456#840D240E000001
(1703560121.247259) can0 181056F4#D80FD00702
(1703560121.247259) can0 1812F456#840D240E000001
(1703560121.247259) can0 181056F4#D80FD00702
(1703560121.247259) can0 1812F456#840DE80D000001
(1703560121.247259) can0 181056F4#D80FD00702
(1703560121.247259) can0 1CEC56F4#10090002FF001100
(1703560121.247259) can0 1CECF456#110201FFFF001100
(1703560121.247259) can0 1CEB56F4#01A60DD20D6C4122
(1703560121.247259) can0 1CEB56F4#025600FFFFFFFFFF
(1703560121.247259) can0 181356F4#284F034D1A00D0
(1703560121.247259) can0 1CECF456#13090002FF001100
(1703560121.247259) can0 1812F456#840DE80D000001
(1703560121.247259) can0 181056F4#D80FD00702
(1703560121.247259) can0 1812F456#840DE80D000001
(1703560121.247259) can0 181056F4#D80FD00702
(1703560121.247259) can0 1812F456#840DE80D000001
(1703560121.247259) can0 181056F4#D80FD00702
(1703560121.247259) can0 1812F456#840DE80D000001
(1703560121.247259) can0 181056F4#D80FD00702
(1703560121.247259) can0 1812F456#840DE80D000001
(1703560121.247259) can0 181056F4#D80FD00702
(1703560121.247259) can0 1CEC56F4#10090002FF001100
(1703560121.247259) can0 1CECF456#110201FFFF001100
(1703560121.247259) can0 1CEB56F4#01A80DD10D6C0122
(1703560121.247259) can0 1CEB56F4#025600FFFFFFFFFF
(1703560121.247259) can0 181356F4#084F034D1A00D0
(1703560121.247259) can0 1CECF456#13090002FF001100
(1703560121.247259) can0 1812F456#840DE80D000001
(1703560121.247259) can0 181056F4#D80FD00702
(1703560121.247259) can0 1812F456#840DE80D000001
(1703560121.247259) can0 181056F4#D80FD00702
(1703560121.247259) can0 1812F456#840DE80D000001
(1703560121.247259) can0 181056F4#D80FD00702
(1703560121.247259) can0 1812F456#840DE80D000001
(1703560121.247259) can0 181056F4#D80FD00702
(1703560121.247259) can0 1812F456#840DE80D000001
(1703560121.247259) can0 181056F4#D80FD00702
(1703560121.247259) can0 1CEC56F4#10090002FF001100
(1703560121.247259) can0 1CECF456#110201FFFF001100
(1703560121.247259) can0 1CEB56F4#01A80DD10D6C0122
(1703560121.247259) can0 1CEB56F4#025600FFFFFFFFFF
(1703560121.247259) can0 181356F4#084F034D1A00D0
(1703560121.247259) can0 1CECF456#13090002FF001100
(1703560121.247259) can0 1812F456#840DCA0D000001
(1703560121.247259) can0 181056F4#D80FD00702
(1703560121.247259) can0 1812F456#840DCA0D000001
(1703560121.247259) can0 181056F4#D80FD00702
(1703560121.247259) can0 1812F456#840DCA0D000001
(1703560121.247259) can0 181056F4#D80FD00702
(1703560121.247259) can0 1812F456#840DCA0D000001
(1703560121.247259) can0 181056F4#D80FD00702
(1703560121.247259) can0 1812F456#840DCA0D000001
(1703560121.247259) can0 181056F4#D80FD00702
(1703560121.247259) can0 1CEC56F4#10090002FF001100
(1703560121.247259) can0 1CECF456#110201FFFF001100
(1703560121.247259) can0 1CEB56F4#01A80DD30D6C4122
(1703560121.247259) can0 1CEB56F4#025600FFFFFFFFFF
(1703560121.247259) can0 181356F4#284F034D1A00D0
(1703560121.247259) can0 1CECF456#13090002FF001100
(1703560121.247259) can0 1812F456#840DCA0D000001
(1703560121.247259) can0 181056F4#D80FD00702
(1703560121.247259) can0 1812F456#840DCA0D000001
(1703560121.247259) can0 181056F4#D80FD00702
(1703560121.247259) can0 1812F456#840DCA0D000001
(1703560121.247259) can0 181056F4#D80FD00702
(1703560121.247259) can0 1812F456#840DCA0D000001
(1703560121.247259) can0 181056F4#D80FD00702
(1703560121.247259) can0 1812F456#840DCA0D000001
(1703560121.247259) can0 181056F4#D80FD00702
(1703560121.247259) can0 1CEC56F4#10090002FF001100
(1703560121.247259) can0 1CECF456#110201FFFF001100
(1703560121.247259) can0 1CEB56F4#01A80DD30D6C0122
(1703560121.247259) can0 1CEB56F4#025600FFFFFFFFFF
(1703560121.247259) can0 181356F4#084F034D1A00D0
(1703560121.247259) can0 1CECF456#13090002FF001100
(1703560121.247259) can0 1812F456#840DCA0D000001
(1703560121.247259) can0 181056F4#D80FD00702
(1703560121.247259) can0 1812F456#840DCA0D000001
(1703560121.247259) can0 181056F4#D80FD00702
(1703560121.247259) can0 1812F456#840DCA0D000001
(1703560121.247259) can0 181056F4#D80FD00702
(1703560121.247259) can0 1812F456#840DCA0D000001
(1703560121.247259) can0 181056F4#D80FD00702
(1703560121.247259) can0 1812F456#840DCA0D000001
(1703560121.247259) can0 181056F4#D80FD00702
(1703560121.247259) can0 1CEC56F4#10090002FF001100
(1703560121.247259) can0 1CECF456#110201FFFF001100
(1703560121.247259) can0 1CEB56F4#01A80DD20D6C0122
(1703560121.247259) can0 1CEB56F4#025600FFFFFFFFFF
(1703560121.247259) can0 181356F4#084F034D1A00D0
(1703560121.247259) can0 1CECF456#13090002FF001100
(1703560121.247259) can0 1812F456#840DCA0D000001
(1703560121.247259) can0 181056F4#D80FD00702
(1703560121.247259) can0 1812F456#840DCA0D000001
(1703560121.247259) can0 181056F4#D80FD00702
(1703560121.247259) can0 1812F456#840DCA0D000001
(1703560121.247259) can0 181056F4#D80FD00702
(1703560121.247259) can0 1812F456#840DCA0D000001
(1703560121.247259) can0 181056F4#D80FD00702
(1703560121.247259) can0 1812F456#840DCA0D000001
(1703560121.247259) can0 181056F4#D80FD00702
(1703560121.247259) can0 1CEC56F4#10090002FF001100
(1703560121.247259) can0 1CECF456#110201FFFF001100
(1703560121.247259) can0 1CEB56F4#01A80DD10D6D0122
(1703560121.247259) can0 1CEB56F4#025600FFFFFFFFFF
(1703560121.247259) can0 181356F4#084F034D1A00D0
(1703560121.247259) can0 1CECF456#13090002FF001100
(1703560121.247259) can0 1812F456#840DCA0D000001
(1703560121.247259) can0 181056F4#D80FD00702
(1703560121.247259) can0 1812F456#840DCA0D000001
(1703560121.247259) can0 181056F4#D80FD00702
(1703560121.247259) can0 1812F456#840DCA0D000001
(1703560121.247259) can0 181056F4#D80FD00702
(1703560121.247259) can0 1812F456#840DCA0D000001
(1703560121.247259) can0 181056F4#D80FD00702
(1703560121.247259) can0 1812F456#8E0DCA0D000001
(1703560121.247259) can0 181056F4#D80FD00702
(1703560121.247259) can0 1CEC56F4#10090002FF001100
(1703560121.247259) can0 1CECF456#110201FFFF001100
(1703560121.247259) can0 1CEB56F4#01A80DD10D6D0122
(1703560121.247259) can0 1CEB56F4#025600FFFFFFFFFF
(1703560121.247259) can0 181356F4#084F034D1A00D0
(1703560121.247259) can0 1CECF456#13090002FF001100
(1703560121.247259) can0 1812F456#8E0DCA0D000001
(1703560121.247259) can0 181056F4#D80FD00702
(1703560121.247259) can0 1812F456#8E0DCA0D000001
(1703560121.247259) can0 181056F4#D80FD00702
(1703560121.247259) can0 1812F456#8E0DCA0D000001
(1703560121.247259) can0 181056F4#D80FD00702
(1703560121.247259) can0 1812F456#8E0DCA0D000001
(1703560121.247259) can0 181056F4#D80FD00702
(1703560121.247259) can0 1812F456#8E0DCA0D000001
(1703560121.247259) can0 181056F4#D80FD00702
(1703560121.247259) can0 1CEC56F4#10090002FF001100
(1703560121.247259) can0 1CECF456#110201FFFF001100
(1703560121.247259) can0 1CEB56F4#01A80DCF0D6D0122
(1703560121.247259) can0 1CEB56F4#025600FFFFFFFFFF
(1703560121.247259) can0 181356F4#084F034D1A00D0
(1703560121.247259) can0 1CECF456#13090002FF001100
(1703560121.247259) can0 1812F456#8E0DCA0D000001
(1703560121.247259) can0 181056F4#D80FD00702
(1703560121.247259) can0 1812F456#8E0DCA0D000001
(1703560121.247259) can0 181056F4#D80FD00702
(1703560121.247259) can0 1812F456#8E0DCA0D000001
(1703560121.247259) can0 181056F4#D80FD00702
(1703560121.247259) can0 1812F456#8E0DCA0D000001
(1703560121.247259) can0 181056F4#D80FD00702
(1703560121.247259) can0 1812F456#8E0DCA0D000001
(1703560121.247259) can0 181056F4#D80FD00702
(1703560121.247259) can0 1CEC56F4#10090002FF001100
(1703560121.247259) can0 1CECF456#110201FFFF001100
(1703560121.247259) can0 1CEB56F4#01A80DD20D6D0122
(1703560121.247259) can0 1CEB56F4#025600FFFFFFFFFF
(1703560121.247259) can0 181356F4#084F034D1A00D0
(1703560121.247259) can0 1CECF456#13090002FF001100
(1703560121.247259) can0 1812F456#8E0DCA0D000001
(1703560121.247259) can0 181056F4#D80FD00702
(1703560121.247259) can0 1812F456#840DCA0D000001
(1703560121.247259) can0 181056F4#D80FD00702
(1703560121.247259) can0 1812F456#840DCA0D000001
(1703560121.247259) can0 181056F4#D80FD00702
(1703560121.247259) can0 1812F456#840DCA0D000001
(1703560121.247259) can0 181056F4#D80FD00702
(1703560121.247259) can0 1812F456#840DCA0D000001
(1703560121.247259) can0 181056F4#D80FD00702
(1703560121.247259) can0 1CEC56F4#10090002FF001100
(1703560121.247259) can0 1CECF456#110201FFFF001100
(1703560121.247259) can0 1CEB56F4#01AB0D830D6D0122
(1703560121.247259) can0 1CEB56F4#025600FFFFFFFFFF
(1703560121.247259) can0 181356F4#084F034D1A00D0
(1703560121.247259) can0 1CECF456#13090002FF001100
(1703560121.247259) can0 1812F456#840DCA0D000001
(1703560121.247259) can0 181056F4#D80FD00702
(1703560121.247259) can0 1812F456#840DCA0D000001
(1703560121.247259) can0 181056F4#D80FD00702
(1703560121.247259) can0 1812F456#840DCA0D000001
(1703560121.247259) can0 181056F4#D80FD00702
(1703560121.247259) can0 1812F456#840DCA0D000001
(1703560121.247259) can0 181056F4#D80FD00702
(1703560121.247259) can0 1812F456#840DCA0D000001
(1703560121.247259) can0 181056F4#D80FD00702
(1703560121.247259) can0 1CEC56F4#10090002FF001100
(1703560121.247259) can0 1CECF456#110201FFFF001100
(1703560121.247259) can0 1CEB56F4#01AE0D5D0D6D0122
(1703560121.247259) can0 1CEB56F4#025600FFFFFFFFFF
(1703560121.247259) can0 181356F4#084F034D1A00D0
(1703560121.247259) can0 1CECF456#13090002FF001100
(1703560121.247259) can0 1812F456#840DCA0D000001
(1703560121.247259) can0 181056F4#D80FD00702
(1703560121.247259) can0 1812F456#840DCA0D000001
(1703560121.247259) can0 181056F4#D80FD00702
(1703560121.247259) can0 1812F456#840DCA0D000001
(1703560121.247259) can0 181056F4#D80FD00702
(1703560121.247259) can0 1812F456#840DCA0D000001
(1703560121.247259) can0 181056F4#D80FD00702
(1703560121.247259) can0 1812F456#840DCA0D000001
(1703560121.247259) can0 181056F4#D80FD00702
(1703560121.247259) can0 1CEC56F4#10090002FF001100
(1703560121.247259) can0 1CECF456#110201FFFF001100
(1703560121.247259) can0 1CEB56F4#01AC0D590D6D0122
(1703560121.247259) can0 1CEB56F4#025600FFFFFFFFFF
(1703560121.247259) can0 181356F4#084F034D1A00D0
(1703560121.247259) can0 1CECF456#13090002FF001100
(1703560121.247259) can0 1812F456#8E0D840D000001
(1703560121.247259) can0 181056F4#D80FD00702
(1703560121.247259) can0 1812F456#8E0D840D000001
(1703560121.247259) can0 181056F4#D80FD00702
(1703560121.247259) can0 1812F456#8E0D840D000001
(1703560121.247259) can0 181056F4#D80FD00702
(1703560121.247259) can0 1812F456#8E0D840D000001
(1703560121.247259) can0 181056F4#D80FD00702
(1703560121.247259) can0 1812F456#8E0D840D000001
(1703560121.247259) can0 181056F4#D80FD00702
(1703560121.247259) can0 1CEC56F4#10090002FF001100
(1703560121.247259) can0 1CECF456#110201FFFF001100
(1703560121.247259) can0 1CEB56F4#01AF0D280D6D0122
(1703560121.247259) can0 1CEB56F4#025600FFFFFFFFFF
(1703560121.247259) can0 181356F4#084F034D1A00D0
(1703560121.247259) can0 1CECF456#13090002FF001100
(1703560121.247259) can0 1812F456#8E0D840D000001
(1703560121.247259) can0 181056F4#D80FD00702
(1703560121.247259) can0 1812F456#8E0D840D000001
(1703560121.247259) can0 181056F4#D80FD00702
(1703560121.247259) can0 1812F456#8E0D840D000001
(1703560121.247259) can0 181056F4#D80FD00702
(1703560121.247259) can0 1812F456#8E0D840D000001
(1703560121.247259) can0 181056F4#D80FD00702
(1703560121.247259) can0 1812F456#8E0D840D000001
(1703560121.247259) can0 181056F4#D80FD00702
(1703560121.247259) can0 1CEC56F4#10090002FF001100
(1703560121.247259) can0 1CECF456#110201FFFF001100
(1703560121.247259) can0 1CEB56F4#01B10D160D6E0122
(1703560121.247259) can0 1CEB56F4#025600FFFFFFFFFF
(1703560121.247259) can0 181356F4#084F034D1A00D0
(1703560121.247259) can0 1CECF456#13090002FF001100
(1703560121.247259) can0 1812F456#8E0D2A0D000001
(1703560121.247259) can0 181056F4#D80FD00702
(1703560121.247259) can0 1812F456#8E0D2A0D000001
(1703560121.247259) can0 181056F4#D80FD00702
(1703560121.247259) can0 1812F456#8E0D2A0D000001
(1703560121.247259) can0 181056F4#D80FD00702
(1703560121.247259) can0 1812F456#8E0D2A0D000001
(1703560121.247259) can0 181056F4#D80FD00702
(1703560121.247259) can0 1812F456#8E0D2A0D000001
(1703560121.247259) can0 181056F4#D80FD00702
(1703560121.247259) can0 1CEC56F4#10090002FF001100
(1703560121.247259) can0 1CECF456#110201FFFF001100
(1703560121.247259) can0 1CEB56F4#01B10D100D6E4122
(1703560121.247259) can0 1CEB56F4#025600FFFFFFFFFF
(1703560121.247259) can0 181356F4#284F034D1A00D0
(1703560121.247259) can0 1CECF456#13090002FF001100
(1703560121.247259) can0 1812F456#8E0D2A0D000001
(1703560121.247259) can0 181056F4#D80FD00702
(1703560121.247259) can0 1812F456#8E0D2A0D000001
(1703560121.247259) can0 181056F4#D80FD00702
(1703560121.247259) can0 1812F456#8E0D2A0D000001
(1703560121.247259) can0 181056F4#D80FD00702
(1703560121.247259) can0 1812F456#8E0D2A0D000001
(1703560121.247259) can0 181056F4#D80FD00702
(1703560121.247259) can0 1812F456#8E0D2A0D000001
(1703560121.247259) can0 181056F4#D80FD00702
(1703560121.247259) can0 1CEC56F4#10090002FF001100
(1703560121.247259) can0 1CECF456#110201FFFF001100
(1703560121.247259) can0 1CEB56F4#01B10D0D0D6E0122
(1703560121.247259) can0 1CEB56F4#025600FFFFFFFFFF
(1703560121.247259) can0 181356F4#084F034D1A00D0
(1703560121.247259) can0 1CECF456#13090002FF001100
(1703560121.247259) can0 1812F456#8E0D2A0D000001
(1703560121.247259) can0 181056F4#D80FD00702
(1703560121.247259) can0 1812F456#8E0D2A0D000001
(1703560121.247259) can0 181056F4#D80FD00702
(1703560121.247259) can0 1812F456#980D020D000001
(1703560121.247259) can0 181056F4#D80FD00702
(1703560121.247259) can0 1812F456#980D020D000001
(1703560121.247259) can0 181056F4#D80FD00702
(1703560121.247259) can0 1812F456#980D020D000001
(1703560121.247259) can0 181056F4#D80FD00702
(1703560121.247259) can0 1CEC56F4#10090002FF001100
(1703560121.247259) can0 1CECF456#110201FFFF001100
(1703560121.247259) can0 1CEB56F4#01B10D100D6E0122
(1703560121.247259) can0 1CEB56F4#025600FFFFFFFFFF
(1703560121.247259) can0 181356F4#084F034D1A00D0
(1703560121.247259) can0 1CECF456#13090002FF001100
(1703560121.247259) can0 1812F456#980D020D000001
(1703560121.247259) can0 181056F4#D80FD00702
(1703560121.247259) can0 1812F456#980D020D000001
(1703560121.247259) can0 181056F4#D80FD00702
(1703560121.247259) can0 1812F456#980D020D000001
(1703560121.247259) can0 181056F4#D80FD00702
(1703560121.247259) can0 1812F456#980D020D000001
(1703560121.247259) can0 181056F4#D80FD00702
(1703560121.247259) can0 1812F456#980D020D000001
(1703560121.247259) can0 181056F4#D80FD00702
(1703560121.247259) can0 1CEC56F4#10090002FF001100
(1703560121.247259) can0 1CECF456#110201FFFF001100
(1703560121.247259) can0 1CEB56F4#01B20D0D0D6E0122
(1703560121.247259) can0 1CEB56F4#025600FFFFFFFFFF
(1703560121.247259) can0 181356F4#084F034D1A00D0
(1703560121.247259) can0 1CECF456#13090002FF001100
(1703560121.247259) can0 1812F456#980D020D000001
(1703560121.247259) can0 181056F4#D80FD00702
(1703560121.247259) can0 1812F456#980D020D000001
(1703560121.247259) can0 181056F4#D80FD00702
(1703560121.247259) can0 1812F456#980D020D000001
(1703560121.247259) can0 181056F4#D80FD00702
(1703560121.247259) can0 1812F456#980D020D000001
(1703560121.247259) can0 181056F4#D80FD00702
(1703560121.247259) can0 1812F456#980D020D000001
(1703560121.247259) can0 181056F4#D80FD00702
(1703560121.247259) can0 1CEC56F4#10090002FF001100
(1703560121.247259) can0 1CECF456#110201FFFF001100
(1703560121.247259) can0 1CEB56F4#01B20D100D6E0122
(1703560121.247259) can0 1CEB56F4#025600FFFFFFFFFF
(1703560121.247259) can0 181356F4#084F034D1A00D0
(1703560121.247259) can0 1CECF456#13090002FF001100
(1703560121.247259) can0 1812F456#980D020D000001
(1703560121.247259) can0 181056F4#D80FD00702
(1703560121.247259) can0 1812F456#980D020D000001
(1703560121.247259) can0 181056F4#D80FD00702
(1703560121.247259) can0 1812F456#980D020D000001
(1703560121.247259) can0 181056F4#D80FD00702
(1703560121.247259) can0 1812F456#980D020D000001
(1703560121.247259) can0 181056F4#D80FD00702
(1703560121.247259) can0 1812F456#980D020D000001
(1703560121.247259) can0 181056F4#D80FD00702
(1703560121.247259) can0 1CEC56F4#10090002FF001100
(1703560121.247259) can0 1CECF456#110201FFFF001100
(1703560121.247259) can0 1CEB56F4#01B20D0C0D6E4122
(1703560121.247259) can0 1CEB56F4#025600FFFFFFFFFF
(1703560121.247259) can0 181356F4#284F034D1A00D0
(1703560121.247259) can0 1CECF456#13090002FF001100
(1703560121.247259) can0 1812F456#980D020D000001
(1703560121.247259) can0 181056F4#D80FD00702
(1703560121.247259) can0 1812F456#980D020D000001
(1703560121.247259) can0 181056F4#D80FD00702
(1703560121.247259) can0 1812F456#980D020D000001
(1703560121.247259) can0 181056F4#D80FD00702
(1703560121.247259) can0 1812F456#980D020D000001
(1703560121.247259) can0 181056F4#D80FD00702
(1703560121.247259) can0 1812F456#980D020D000001
(1703560121.247259) can0 181056F4#D80FD00702
(1703560121.247259) can0 1CEC56F4#10090002FF001100
(1703560121.247259) can0 1CECF456#110201FFFF001100
(1703560121.247259) can0 1CEB56F4#01B20D100D6E0122
(1703560121.247259) can0 1CEB56F4#025600FFFFFFFFFF
(1703560121.247259) can0 181356F4#084F034D1A00D0
(1703560121.247259) can0 1CECF456#13090002FF001100
(1703560121.247259) can0 1812F456#980D020D000001
(1703560121.247259) can0 181056F4#D80FD00702
(1703560121.247259) can0 1812F456#980D020D000001
(1703560121.247259) can0 181056F4#D80FD00702
(1703560121.247259) can0 1812F456#980D020D000001
(1703560121.247259) can0 181056F4#D80FD00702
(1703560121.247259) can0 1812F456#980D020D000001
(1703560121.247259) can0 181056F4#D80FD00702
(1703560121.247259) can0 1812F456#980D020D000001
(1703560121.247259) can0 181056F4#D80FD00702
(1703560121.247259) can0 1CEC56F4#10090002FF001100
(1703560121.247259) can0 1CECF456#110201FFFF001100
(1703560121.247259) can0 1CEB56F4#01B20D0C0D6E0122
(1703560121.247259) can0 1CEB56F4#025600FFFFFFFFFF
(1703560121.247259) can0 181356F4#084F034D1A00D0
(1703560121.247259) can0 1CECF456#13090002FF001100
(1703560121.247259) can0 1812F456#980D020D000001
(1703560121.247259) can0 181056F4#D80FD00702
(1703560121.247259) can0 1812F456#980D020D000001
(1703560121.247259) can0 181056F4#D80FD00702
(1703560121.247259) can0 1812F456#980D020D000001
(1703560121.247259) can0 181056F4#D80FD00702
(1703560121.247259) can0 1812F456#980D020D000001
(1703560121.247259) can0 181056F4#D80FD00702
(1703560121.247259) can0 1812F456#980D020D000001
(1703560121.247259) can0 181056F4#D80FD00702
(1703560121.247259) can0 1CEC56F4#10090002FF001100
(1703560121.247259) can0 1CECF456#110201FFFF001100
(1703560121.247259) can0 1CEB56F4#01B40DFB0C6E4122
(1703560121.247259) can0 1CEB56F4#025600FFFFFFFFFF
(1703560121.247259) can0 181356F4#284F034D1A00D0
(1703560121.247259) can0 1CECF456#13090002FF001100
(1703560121.247259) can0 1812F456#980D020D000001
(1703560121.247259) can0 181056F4#D80FD00702
(1703560121.247259) can0 1812F456#980D020D000001
(1703560121.247259) can0 181056F4#D80FD00702
(1703560121.247259) can0 1812F456#980D020D000001
(1703560121.247259) can0 181056F4#D80FD00702
(1703560121.247259) can0 1812F456#980D020D000001
(1703560121.247259) can0 181056F4#D80FD00702
(1703560121.247259) can0 1812F456#980DEE0C000001
(1703560121.247259) can0 181056F4#D80FD00702
(1703560121.247259) can0 1CEC56F4#10090002FF001100
(1703560121.247259) can0 1CECF456#110201FFFF001100
(1703560121.247259) can0 1CEB56F4#01B40DD10C6E4122
(1703560121.247259) can0 1CEB56F4#025600FFFFFFFFFF
(1703560121.247259) can0 181356F4#284F034D1A00D0
(1703560121.247259) can0 1CECF456#13090002FF001100
(1703560121.247259) can0 1812F456#980DEE0C000001
(1703560121.247259) can0 181056F4#D80FD00702
(1703560121.247259) can0 1812F456#980DEE0C000001
(1703560121.247259) can0 181056F4#D80FD00702
(1703560121.247259) can0 1812F456#980DEE0C000001
(1703560121.247259) can0 181056F4#D80FD00702
(1703560121.247259) can0 1812F456#980DEE0C000001
(1703560121.247259) can0 181056F4#D80FD00702
(1703560121.247259) can0 1812F456#980DEE0C000001
(1703560121.247259) can0 181056F4#D80FD00702
(1703560121.247259) can0 1CEC56F4#10090002FF001100
(1703560121.247259) can0 1CECF456#110201FFFF001100
(1703560121.247259) can0 1CEB56F4#01B90D910C6F4122
(1703560121.247259) can0 1CEB56F4#025600FFFFFFFFFF
(1703560121.247259) can0 181356F4#284F034D1A00D0
(1703560121.247259) can0 1CECF456#13090002FF001100
(1703560121.247259) can0 1812F456#980DEE0C000001
(1703560121.247259) can0 181056F4#D80FD00702
(1703560121.247259) can0 1812F456#980DEE0C000001
(1703560121.247259) can0 181056F4#D80FD00702
(1703560121.247259) can0 1812F456#980DEE0C000001
(1703560121.247259) can0 181056F4#D80FD00702
(1703560121.247259) can0 1812F456#980DEE0C000001
(1703560121.247259) can0 181056F4#D80FD00702
(1703560121.247259) can0 1812F456#980DEE0C000001
(1703560121.247259) can0 181056F4#D80FD00702
(1703560121.247259) can0 1CEC56F4#10090002FF001100
(1703560121.247259) can0 1CECF456#110201FFFF001100
(1703560121.247259) can0 1CEB56F4#01B90D800C6F4122
(1703560121.247259) can0 1CEB56F4#025600FFFFFFFFFF
(1703560121.247259) can0 181356F4#284F034D1A00D0
(1703560121.247259) can0 1CECF456#13090002FF001100
(1703560121.247259) can0 1812F456#980DEE0C000001
(1703560121.247259) can0 181056F4#D80FD00702
(1703560121.247259) can0 1812F456#980D800C000001
(1703560121.247259) can0 181056F4#D80FD00702
(1703560121.247259) can0 1812F456#980D800C000001
(1703560121.247259) can0 181056F4#D80FD00702
(1703560121.247259) can0 1812F456#980D800C000001
(1703560121.247259) can0 181056F4#D80FD00702
(1703560121.247259) can0 1812F456#980D800C000001
(1703560121.247259) can0 181056F4#D80FD00702
(1703560121.247259) can0 1CEC56F4#10090002FF001100
(1703560121.247259) can0 1CECF456#110201FFFF001100
(1703560121.247259) can0 1CEB56F4#01BA0D840C6F4122
(1703560121.247259) can0 1CEB56F4#025600FFFFFFFFFF
(1703560121.247259) can0 181356F4#284F034D1A00D0
(1703560121.247259) can0 1CECF456#13090002FF001100
(1703560121.247259) can0 1812F456#980D800C000001
(1703560121.247259) can0 181056F4#D80FD00702
(1703560121.247259) can0 1812F456#980D800C000001
(1703560121.247259) can0 181056F4#D80FD00702
(1703560121.247259) can0 1812F456#980D800C000001
(1703560121.247259) can0 181056F4#D80FD00702
(1703560121.247259) can0 1812F456#980D800C000001
(1703560121.247259) can0 181056F4#D80FD00702
(1703560121.247259) can0 1812F456#980D800C000001
(1703560121.247259) can0 181056F4#D80FD00702
(1703560121.247259) can0 1CEC56F4#10090002FF001100
(1703560121.247259) can0 1CECF456#110201FFFF001100
(1703560121.247259) can0 1CEB56F4#01BC0D4D0C6F4122
(1703560121.247259) can0 1CEB56F4#025600FFFFFFFFFF
(1703560121.247259) can0 181356F4#284F034D1A00D0
(1703560121.247259) can0 1CECF456#13090002FF001100
(1703560121.247259) can0 1812F456#980D800C000001
(1703560121.247259) can0 181056F4#D80FD00702
(1703560121.247259) can0 1812F456#980D800C000001
(1703560121.247259) can0 181056F4#D80FD00702
(1703560121.247259) can0 1812F456#980D800C000001
(1703560121.247259) can0 181056F4#D80FD00702
(1703560121.247259) can0 1812F456#A20D580C000001
(1703560121.247259) can0 181056F4#D80FD00702
(1703560121.247259) can0 1812F456#A20D580C000001
(1703560121.247259) can0 181056F4#D80FD00702
(1703560121.247259) can0 1CEC56F4#10090002FF001100
(1703560121.247259) can0 1CECF456#110201FFFF001100
(1703560121.247259) can0 1CEB56F4#01BC0D490C6F4122
(1703560121.247259) can0 1CEB56F4#025600FFFFFFFFFF
(1703560121.247259) can0 181356F4#284F034D1A00D0
(1703560121.247259) can0 1CECF456#13090002FF001100
(1703560121.247259) can0 1812F456#A20D580C000001
(1703560121.247259) can0 181056F4#D80FD00702
(1703560121.247259) can0 1812F456#A20D580C000001
(1703560121.247259) can0 181056F4#D80FD00702
(1703560121.247259) can0 1812F456#A20D580C000001
(1703560121.247259) can0 181056F4#D80FD00702
(1703560121.247259) can0 1812F456#A20D580C000001
(1703560121.247259) can0 181056F4#D80FD00702
(1703560121.247259) can0 1812F456#A20D580C000001
(1703560121.247259) can0 181056F4#D80FD00702
(1703560121.247259) can0 1CEC56F4#10090002FF001100
(1703560121.247259) can0 1CECF456#110201FFFF001100
(1703560121.247259) can0 1CEB56F4#01BC0D450C6F4122
(1703560121.247259) can0 1CEB56F4#025600FFFFFFFFFF
(1703560121.247259) can0 181356F4#284F034D1A00D0
(1703560121.247259) can0 1CECF456#13090002FF001100
(1703560121.247259) can0 1812F456#A20D580C000001
(1703560121.247259) can0 181056F4#D80FD00702
(1703560121.247259) can0 1812F456#A20D580C000001
(1703560121.247259) can0 181056F4#D80FD00702
(1703560121.247259) can0 1812F456#A20D580C000001
(1703560121.247259) can0 181056F4#D80FD00702
(1703560121.247259) can0 1812F456#A20D580C000001
(1703560121.247259) can0 181056F4#D80FD00702
(1703560121.247259) can0 1812F456#A20D580C000001
(1703560121.247259) can0 181056F4#D80FD00702
(1703560121.247259) can0 1CEC56F4#10090002FF001100
(1703560121.247259) can0 1CECF456#110201FFFF001100
(1703560121.247259) can0 1CEB56F4#01BC0D450C6F4122
(1703560121.247259) can0 1CEB56F4#025600FFFFFFFFFF
(1703560121.247259) can0 181356F4#284F034D1A00D0
(1703560121.247259) can0 1CECF456#13090002FF001100
(1703560121.247259) can0 1812F456#A20D3A0C000001
(1703560121.247259) can0 181056F4#D80FD00702
(1703560121.247259) can0 1812F456#A20D3A0C000001
(1703560121.247259) can0 181056F4#D80FD00702
(1703560121.247259) can0 1812F456#A20D3A0C000001
(1703560121.247259) can0 181056F4#D80FD00702
(1703560121.247259) can0 1812F456#A20D3A0C000001
(1703560121.247259) can0 181056F4#D80FD00702
(1703560121.247259) can0 1812F456#A20D3A0C000001
(1703560121.247259) can0 181056F4#D80FD00702
(1703560121.247259) can0 1CEC56F4#10090002FF001100
(1703560121.247259) can0 1CECF456#110201FFFF001100
(1703560121.247259) can0 1CEB56F4#01BC0D490C6F4122
(1703560121.247259) can0 1CEB56F4#025600FFFFFFFFFF
(1703560121.247259) can0 181356F4#284F034D1A00D0
(1703560121.247259) can0 1CECF456#13090002FF001100
(1703560121.247259) can0 1812F456#A20D3A0C000001
(1703560121.247259) can0 181056F4#D80FD00702
(1703560121.247259) can0 1812F456#A20D3A0C000001
(1703560121.247259) can0 181056F4#D80FD00702
(1703560121.247259) can0 1812F456#A20D3A0C000001
(1703560121.247259) can0 181056F4#D80FD00702
(1703560121.247259) can0 1812F456#A20D3A0C000001
(1703560121.247259) can0 181056F4#D80FD00702
(1703560121.247259) can0 1812F456#A20D3A0C000001
(1703560121.247259) can0 181056F4#D80FD00702
(1703560121.247259) can0 1CEC56F4#10090002FF001100
(1703560121.247259) can0 1CECF456#110201FFFF001100
(1703560121.247259) can0 1CEB56F4#01BC0D450C6F0122
(1703560121.247259) can0 1CEB56F4#025600FFFFFFFFFF
(1703560121.247259) can0 181356F4#084F034D1A00D0
(1703560121.247259) can0 1CECF456#13090002FF001100
(1703560121.247259) can0 1812F456#A20D3A0C000001
(1703560121.247259) can0 181056F4#D80FD00702
(1703560121.247259) can0 1812F456#A20D3A0C000001
(1703560121.247259) can0 181056F4#D80FD00702
(1703560121.247259) can0 1812F456#A20D3A0C000001
(1703560121.247259) can0 181056F4#D80FD00702
(1703560121.247259) can0 1812F456#A20D3A0C000001
(1703560121.247259) can0 181056F4#D80FD00702
(1703560121.247259) can0 1812F456#A20D3A0C000001
(1703560121.247259) can0 181056F4#D80FD00702
(1703560121.247259) can0 1CEC56F4#10090002FF001100
(1703560121.247259) can0 1CECF456#110201FFFF001100
(1703560121.247259) can0 1CEB56F4#01BD0D490C6F4122
(1703560121.247259) can0 1CEB56F4#025600FFFFFFFFFF
(1703560121.247259) can0 181356F4#284F034D1A00D0
(1703560121.247259) can0 1CECF456#13090002FF001100
(1703560121.247259) can0 1812F456#A20D3A0C000001
(1703560121.247259) can0 181056F4#D80FD00702
(1703560121.247259) can0 1812F456#A20D3A0C000001
(1703560121.247259) can0 181056F4#D80FD00702
(1703560121.247259) can0 1812F456#A20D3A0C000001
(1703560121.247259) can0 181056F4#D80FD00702
(1703560121.247259) can0 1812F456#A20D3A0C000001
(1703560121.247259) can0 181056F4#D80FD00702
(1703560121.247259) can0 1812F456#A20D3A0C000001
(1703560121.247259) can0 181056F4#D80FD00702
(1703560121.247259) can0 1CEC56F4#10090002FF001100
(1703560121.247259) can0 1CECF456#110201FFFF001100
(1703560121.247259) can0 1CEB56F4#01BD0D450C6F4122
(1703560121.247259) can0 1CEB56F4#025600FFFFFFFFFF
(1703560121.247259) can0 181356F4#284F034D1A00D0
(1703560121.247259) can0 1CECF456#13090002FF001100
(1703560121.247259) can0 1812F456#A20D3A0C000001
(1703560121.247259) can0 181056F4#D80FD00702
(1703560121.247259) can0 1812F456#A20D3A0C000001
(1703560121.247259) can0 181056F4#D80FD00702
(1703560121.247259) can0 1812F456#A20D3A0C000001
(1703560121.247259) can0 181056F4#D80FD00702
(1703560121.247259) can0 1812F456#A20D3A0C000001
(1703560121.247259) can0 181056F4#D80FD00702
(1703560121.247259) can0 1812F456#A20D3A0C000001
(1703560121.247259) can0 181056F4#D80FD00702
(1703560121.247259) can0 1CEC56F4#10090002FF001100
(1703560121.247259) can0 1CECF456#110201FFFF001100
(1703560121.247259) can0 1CEB56F4#01BD0D490C6F4122
(1703560121.247259) can0 1CEB56F4#025600FFFFFFFFFF
(1703560121.247259) can0 181356F4#284F034D1A00D0
(1703560121.247259) can0 1CECF456#13090002FF001100
(1703560121.247259) can0 1812F456#A20D3A0C000001
(1703560121.247259) can0 181056F4#D80FD00702
(1703560121.247259) can0 1812F456#A20D3A0C000001
(1703560121.247259) can0 181056F4#D80FD00702
(1703560121.247259) can0 1812F456#A20D3A0C000001
(1703560121.247259) can0 181056F4#D80FD00702
(1703560121.247259) can0 1812F456#A20D3A0C000001
(1703560121.247259) can0 181056F4#D80FD00702
(1703560121.247259) can0 1812F456#A20D3A0C000001
(1703560121.247259) can0 181056F4#D80FD00702
(1703560121.247259) can0 1CEC56F4#10090002FF001100
(1703560121.247259) can0 1CECF456#110201FFFF001100
(1703560121.247259) can0 1CEB56F4#01BF0D370C704122
(1703560121.247259) can0 1CEB56F4#025600FFFFFFFFFF
(1703560121.247259) can0 181356F4#284F034D1A00D0
(1703560121.247259) can0 1CECF456#13090002FF001100
(1703560121.247259) can0 1812F456#A20D3A0C000001
(1703560121.247259) can0 181056F4#D80FD00702
(1703560121.247259) can0 1812F456#A20D3A0C000001
(1703560121.247259) can0 181056F4#D80FD00702
(1703560121.247259) can0 1812F456#A20D3A0C000001
(1703560121.247259) can0 181056F4#D80FD00702
(1703560121.247259) can0 1812F456#A20D3A0C000001
(1703560121.247259) can0 181056F4#D80FD00702
(1703560121.247259) can0 1812F456#A20D3A0C000001
(1703560121.247259) can0 181056F4#D80FD00702
(1703560121.247259) can0 1CEC56F4#10090002FF001100
(1703560121.247259) can0 1CECF456#110201FFFF001100
(1703560121.247259) can0 1CEB56F4#01C10D0D0C704122
(1703560121.247259) can0 1CEB56F4#025600FFFFFFFFFF
(1703560121.247259) can0 181356F4#284F034D1A00D0
(1703560121.247259) can0 1CECF456#13090002FF001100
(1703560121.247259) can0 1812F456#A20D3A0C000001
(1703560121.247259) can0 181056F4#D80FD00702
(1703560121.247259) can0 1812F456#A20D260C000001
(1703560121.247259) can0 181056F4#D80FD00702
(1703560121.247259) can0 1812F456#A20D260C000001
(1703560121.247259) can0 181056F4#D80FD00702
(1703560121.247259) can0 1812F456#A20D260C000001
(1703560121.247259) can0 181056F4#D80FD00702
(1703560121.247259) can0 1812F456#A20D260C000001
(1703560121.247259) can0 181056F4#D80FD00702
(1703560121.247259) can0 1CEC56F4#10090002FF001100
(1703560121.247259) can0 1CECF456#110201FFFF001100
(1703560121.247259) can0 1CEB56F4#01C20DE30B704122
(1703560121.247259) can0 1CEB56F4#025600FFFFFFFFFF
(1703560121.247259) can0 181356F4#284F034D1A00D0
(1703560121.247259) can0 1CECF456#13090002FF001100
(1703560121.247259) can0 1812F456#A20D260C000001
(1703560121.247259) can0 181056F4#D80FD00702
(1703560121.247259) can0 1812F456#A20D260C000001
(1703560121.247259) can0 181056F4#D80FD00702
(1703560121.247259) can0 1812F456#A20D260C000001
(1703560121.247259) can0 181056F4#D80FD00702
(1703560121.247259) can0 1812F456#A20D260C000001
(1703560121.247259) can0 181056F4#D80FD00702
(1703560121.247259) can0 1812F456#A20D260C000001
(1703560121.247259) can0 181056F4#D80FD00702
(1703560121.247259) can0 1CEC56F4#10090002FF001100
(1703560121.247259) can0 1CECF456#110201FFFF001100
(1703560121.247259) can0 1CEB56F4#01C40DBD0B704122
(1703560121.247259) can0 1CEB56F4#025600FFFFFFFFFF
(1703560121.247259) can0 181356F4#284F034D1A00D0
(1703560121.247259) can0 1CECF456#13090002FF001100
(1703560121.247259) can0 1812F456#A20D260C000001
(1703560121.247259) can0 181056F4#D80FD00702
(1703560121.247259) can0 1812F456#A20D260C000001
(1703560121.247259) can0 181056F4#D80FD00702
(1703560121.247259) can0 1812F456#A20D260C000001
(1703560121.247259) can0 181056F4#D80FD00702
(1703560121.247259) can0 1812F456#A20D260C000001
(1703560121.247259) can0 181056F4#D80FD00702
(1703560121.247259) can0 1812F456#AC0DB80B000001
(1703560121.247259) can0 181056F4#D80FD00702
(1703560121.247259) can0 1CEC56F4#10090002FF001100
(1703560121.247259) can0 1CECF456#110201FFFF001100
(1703560121.247259) can0 1CEB56F4#01C40DBA0B704122
(1703560121.247259) can0 1CEB56F4#025600FFFFFFFFFF
(1703560121.247259) can0 181356F4#284F034D1A00D0
(1703560121.247259) can0 1CECF456#13090002FF001100
(1703560121.247259) can0 1812F456#AC0DB80B000001
(1703560121.247259) can0 181056F4#D80FD00702
(1703560121.247259) can0 1812F456#AC0DB80B000001
(1703560121.247259) can0 181056F4#D80FD00702
(1703560121.247259) can0 1812F456#AC0DB80B000001
(1703560121.247259) can0 181056F4#D80FD00702
(1703560121.247259) can0 1812F456#AC0DB80B000001
(1703560121.247259) can0 181056F4#D80FD00702
(1703560121.247259) can0 1812F456#AC0DB80B000001
(1703560121.247259) can0 181056F4#D80FD00702
(1703560121.247259) can0 1CEC56F4#10090002FF001100
(1703560121.247259) can0 1CECF456#110201FFFF001100
(1703560121.247259) can0 1CEB56F4#01C50DAB0B714122
(1703560121.247259) can0 1CEB56F4#025600FFFFFFFFFF
(1703560121.247259) can0 181356F4#284F034D1A00D0
(1703560121.247259) can0 1CECF456#13090002FF001100
(1703560121.247259) can0 1812F456#AC0DB80B000001
(1703560121.247259) can0 181056F4#D80FD00702
(1703560121.247259) can0 1812F456#AC0DB80B000001
(1703560121.247259) can0 181056F4#D80FD00702
(1703560121.247259) can0 1812F456#AC0DB80B000001
(1703560121.247259) can0 181056F4#D80FD00702
(1703560121.247259) can0 1812F456#AC0DB80B000001
(1703560121.247259) can0 181056F4#D80FD00702
(1703560121.247259) can0 1812F456#AC0DB80B000001
(1703560121.247259) can0 181056F4#D80FD00702
(1703560121.247259) can0 1CEC56F4#10090002FF001100
(1703560121.247259) can0 1CECF456#110201FFFF001100
(1703560121.247259) can0 1CEB56F4#01C80D7E0B714122
(1703560121.247259) can0 1CEB56F4#025600FFFFFFFFFF
(1703560121.247259) can0 181356F4#284F034D1A00D0
(1703560121.247259) can0 1CECF456#13090002FF001100
(1703560121.247259) can0 1812F456#AC0DB80B000001
(1703560121.247259) can0 181056F4#D80FD00702
(1703560121.247259) can0 1812F456#AC0D860B000001
(1703560121.247259) can0 181056F4#D80FD00702
(1703560121.247259) can0 1812F456#AC0D860B000001
(1703560121.247259) can0 181056F4#D80FD00702
(1703560121.247259) can0 1812F456#AC0D860B000001
(1703560121.247259) can0 181056F4#D80FD00702
(1703560121.247259) can0 1812F456#AC0D860B000001
(1703560121.247259) can0 181056F4#D80FD00702
(1703560121.247259) can0 1CEC56F4#10090002FF001100
(1703560121.247259) can0 1CECF456#110201FFFF001100
(1703560121.247259) can0 1CEB56F4#01C80D820B714122
(1703560121.247259) can0 1CEB56F4#025600FFFFFFFFFF
(1703560121.247259) can0 181356F4#284F034D1A00D0
(1703560121.247259) can0 1CECF456#13090002FF001100
(1703560121.247259) can0 1812F456#AC0D860B000001
(1703560121.247259) can0 181056F4#D80FD00702
(1703560121.247259) can0 1812F456#AC0D860B000001
(1703560121.247259) can0 181056F4#D80FD00702
(1703560121.247259) can0 1812F456#AC0D860B000001
(1703560121.247259) can0 181056F4#D80FD00702
(1703560121.247259) can0 1812F456#AC0D860B000001
(1703560121.247259) can0 181056F4#D80FD00702
(1703560121.247259) can0 1812F456#AC0D860B000001
(1703560121.247259) can0 181056F4#D80FD00702
(1703560121.247259) can0 1CEC56F4#10090002FF001100
(1703560121.247259) can0 1CECF456#110201FFFF001100
(1703560121.247259) can0 1CEB56F4#01C80D7E0B714122
(1703560121.247259) can0 1CEB56F4#025600FFFFFFFFFF
(1703560121.247259) can0 181356F4#284F034D1A00D0
(1703560121.247259) can0 1CECF456#13090002FF001100
(1703560121.247259) can0 1812F456#AC0D860B000001
(1703560121.247259) can0 181056F4#D80FD00702
(1703560121.247259) can0 1812F456#AC0D860B000001
(1703560121.247259) can0 181056F4#D80FD00702
(1703560121.247259) can0 1812F456#AC0D860B000001
(1703560121.247259) can0 181056F4#D80FD00702
(1703560121.247259) can0 1812F456#AC0D720B000001
(1703560121.247259) can0 181056F4#D80FD00702
(1703560121.247259) can0 1812F456#AC0D720B000001
(1703560121.247259) can0 181056F4#D80FD00702
(1703560121.247259) can0 1CEC56F4#10090002FF001100
(1703560121.247259) can0 1CECF456#110201FFFF001100
(1703560121.247259) can0 1CEB56F4#01C70D810B714122
(1703560121.247259) can0 1CEB56F4#025600FFFFFFFFFF
(1703560121.247259) can0 181356F4#284F034D1A00D0
(1703560121.247259) can0 1CECF456#13090002FF001100
(1703560121.247259) can0 1812F456#AC0D720B000001
(1703560121.247259) can0 181056F4#D80FD00702
(1703560121.247259) can0 1812F456#AC0D720B000001
(1703560121.247259) can0 181056F4#D80FD00702
(1703560121.247259) can0 1812F456#AC0D720B000001
(1703560121.247259) can0 181056F4#D80FD00702
(1703560121.247259) can0 1812F456#AC0D720B000001
(1703560121.247259) can0 181056F4#D80FD00702
(1703560121.247259) can0 1812F456#AC0D720B000001
(1703560121.247259) can0 181056F4#D80FD00702
(1703560121.247259) can0 1CEC56F4#10090002FF001100
(1703560121.247259) can0 1CECF456#110201FFFF001100
(1703560121.247259) can0 1CEB56F4#01C80D7E0B714122
(1703560121.247259) can0 1CEB56F4#025600FFFFFFFFFF
(1703560121.247259) can0 181356F4#284F034D1A00D0
(1703560121.247259) can0 1CECF456#13090002FF001100
(1703560121.247259) can0 1812F456#AC0D720B000001
(1703560121.247259) can0 181056F4#D80FD00702
(1703560121.247259) can0 1812F456#AC0D720B000001
(1703560121.247259) can0 181056F4#D80FD00702
(1703560121.247259) can0 1812F456#AC0D720B000001
(1703560121.247259) can0 181056F4#D80FD00702
(1703560121.247259) can0 1812F456#AC0D720B000001
(1703560121.247259) can0 181056F4#D80FD00702
(1703560121.247259) can0 1812F456#AC0D720B000001
(1703560121.247259) can0 181056F4#D80FD00702
(1703560121.247259) can0 1CEC56F4#10090002FF001100
(1703560121.247259) can0 1CECF456#110201FFFF001100
(1703560121.247259) can0 1CEB56F4#01C80D810B714122
(1703560121.247259) can0 1CEB56F4#025600FFFFFFFFFF
(1703560121.247259) can0 181356F4#284F034D1A00D0
(1703560121.247259) can0 1CECF456#13090002FF001100
(1703560121.247259) can0 1812F456#AC0D720B000001
(1703560121.247259) can0 181056F4#D80FD00702
(1703560121.247259) can0 1812F456#AC0D720B000001
(1703560121.247259) can0 181056F4#D80FD00702
(1703560121.247259) can0 1812F456#AC0D720B000001
(1703560121.247259) can0 181056F4#D80FD00702
(1703560121.247259) can0 1812F456#AC0D720B000001
(1703560121.247259) can0 181056F4#D80FD00702
(1703560121.247259) can0 1812F456#AC0D720B000001
(1703560121.247259) can0 181056F4#D80FD00702
(1703560121.247259) can0 1CEC56F4#10090002FF001100
(1703560121.247259) can0 1CECF456#110201FFFF001100
(1703560121.247259) can0 1CEB56F4#01C80D7E0B714122
(1703560121.247259) can0 1CEB56F4#025600FFFFFFFFFF
(1703560121.247259) can0 181356F4#284F034D1A00D0
(1703560121.247259) can0 1CECF456#13090002FF001100
(1703560121.247259) can0 1812F456#AC0D720B000001
(1703560121.247259) can0 181056F4#D80FD00702
(1703560121.247259) can0 1812F456#AC0D720B000001
(1703560121.247259) can0 181056F4#D80FD00702
(1703560121.247259) can0 1812F456#AC0D720B000001
(1703560121.247259) can0 181056F4#D80FD00702
(1703560121.247259) can0 1812F456#AC0D720B000001
(1703560121.247259) can0 181056F4#D80FD00702
(1703560121.247259) can0 1812F456#AC0D720B000001
(1703560121.247259) can0 181056F4#D80FD00702
(1703560121.247259) can0 1CEC56F4#10090002FF001100
(1703560121.247259) can0 1CECF456#110201FFFF001100
(1703560121.247259) can0 1CEB56F4#01C80D810B714122
(1703560121.247259) can0 1CEB56F4#025600FFFFFFFFFF
(1703560121.247259) can0 181356F4#284F034D1A00D0
(1703560121.247259) can0 1CECF456#13090002FF001100
(1703560121.247259) can0 1812F456#AC0D720B000001
(1703560121.247259) can0 181056F4#D80FD00702
(1703560121.247259) can0 1812F456#AC0D720B000001
(1703560121.247259) can0 181056F4#D80FD00702
(1703560121.247259) can0 1812F456#AC0D720B000001
(1703560121.247259) can0 181056F4#D80FD00702
(1703560121.247259) can0 1812F456#AC0D720B000001
(1703560121.247259) can0 181056F4#D80FD00702
(1703560121.247259) can0 1812F456#AC0D720B000001
(1703560121.247259) can0 181056F4#D80FD00702
(1703560121.247259) can0 1CEC56F4#10090002FF001100
(1703560121.247259) can0 1CECF456#110201FFFF001100
(1703560121.247259) can0 1CEB56F4#01C80D7E0B714122
(1703560121.247259) can0 1CEB56F4#025600FFFFFFFFFF
(1703560121.247259) can0 181356F4#284F034D1A00D0
(1703560121.247259) can0 1CECF456#13090002FF001100
(1703560121.247259) can0 1812F456#AC0D720B000001
(1703560121.247259) can0 181056F4#D80FD00702
(1703560121.247259) can0 1812F456#AC0D720B000001
(1703560121.247259) can0 181056F4#D80FD00702
(1703560121.247259) can0 1812F456#AC0D720B000001
(1703560121.247259) can0 181056F4#D80FD00702
(1703560121.247259) can0 1812F456#AC0D720B000001
(1703560121.247259) can0 181056F4#D80FD00702
(1703560121.247259) can0 1812F456#AC0D720B000001
(1703560121.247259) can0 181056F4#D80FD00702
(1703560121.247259) can0 1CEC56F4#10090002FF001100
(1703560121.247259) can0 1CECF456#110201FFFF001100
(1703560121.247259) can0 1CEB56F4#01CA0D7B0B714122
(1703560121.247259) can0 1CEB56F4#025600FFFFFFFFFF
(1703560121.247259) can0 181356F4#284F034D1A00D0
(1703560121.247259) can0 1CECF456#13090002FF001100
(1703560121.247259) can0 1812F456#AC0D720B000001
(1703560121.247259) can0 181056F4#D80FD00702
(1703560121.247259) can0 1812F456#AC0D720B000001
(1703560121.247259) can0 181056F4#D80FD00702
(1703560121.247259) can0 1812F456#AC0D720B000001
(1703560121.247259) can0 181056F4#D80FD00702
(1703560121.247259) can0 1812F456#AC0D720B000001
(1703560121.247259) can0 181056F4#D80FD00702
(1703560121.247259) can0 1812F456#AC0D680B000001
(1703560121.247259) can0 181056F4#D80FD00702
(1703560121.247259) can0 1CEC56F4#10090002FF001100
(1703560121.247259) can0 1CECF456#110201FFFF001100
(1703560121.247259) can0 1CEB56F4#01CC0D430B714122
(1703560121.247259) can0 1CEB56F4#025600FFFFFFFFFF
(1703560121.247259) can0 181356F4#284F034D1A00D0
(1703560121.247259) can0 1CECF456#13090002FF001100
(1703560121.247259) can0 1812F456#AC0D680B000001
(1703560121.247259) can0 181056F4#D80FD00702
(1703560121.247259) can0 1812F456#AC0D680B000001
(1703560121.247259) can0 181056F4#D80FD00702
(1703560121.247259) can0 1812F456#AC0D680B000001
(1703560121.247259) can0 181056F4#D80FD00702
(1703560121.247259) can0 1812F456#AC0D680B000001
(1703560121.247259) can0 181056F4#D80FD00702
(1703560121.247259) can0 1812F456#AC0D680B000001
(1703560121.247259) can0 181056F4#D80FD00702
(1703560121.247259) can0 1CEC56F4#10090002FF001100
(1703560121.247259) can0 1CECF456#110201FFFF001100
(1703560121.247259) can0 1CEB56F4#01CD0D200B724122
(1703560121.247259) can0 1CEB56F4#025600FFFFFFFFFF
(1703560121.247259) can0 181356F4#284F034D1A00D0
(1703560121.247259) can0 1CECF456#13090002FF001100
(1703560121.247259) can0 1812F456#AC0D680B000001
(1703560121.247259) can0 181056F4#D80FD00702
(1703560121.247259) can0 1812F456#AC0D680B000001
(1703560121.247259) can0 181056F4#D80FD00702
(1703560121.247259) can0 1812F456#AC0D680B000001
(1703560121.247259) can0 181056F4#D80FD00702
(1703560121.247259) can0 1812F456#AC0D680B000001
(1703560121.247259) can0 181056F4#D80FD00702
(1703560121.247259) can0 1812F456#AC0D680B000001
(1703560121.247259) can0 181056F4#D80FD00702
(1703560121.247259) can0 1CEC56F4#10090002FF001100
(1703560121.247259) can0 1CECF456#110201FFFF001100
(1703560121.247259) can0 1CEB56F4#01CF0D1D0B724122
(1703560121.247259) can0 1CEB56F4#025600FFFFFFFFFF
(1703560121.247259) can0 181356F4#284F034D1A00D0
(1703560121.247259) can0 1CECF456#13090002FF001100
(1703560121.247259) can0 1812F456#AC0D680B000001
(1703560121.247259) can0 181056F4#D80FD00702
(1703560121.247259) can0 1812F456#B60D0E0B000001
(1703560121.247259) can0 181056F4#D80FD00702
(1703560121.247259) can0 1812F456#B60D0E0B000001
(1703560121.247259) can0 181056F4#D80FD00702
(1703560121.247259) can0 1812F456#B60D0E0B000001
(1703560121.247259) can0 181056F4#D80FD00702
(1703560121.247259) can0 1812F456#B60D0E0B000001
(1703560121.247259) can0 181056F4#D80FD00702
(1703560121.247259) can0 1CEC56F4#10090002FF001100
(1703560121.247259) can0 1CECF456#110201FFFF001100
(1703560121.247259) can0 1CEB56F4#01CD0D1F0B724122
(1703560121.247259) can0 1CEB56F4#025600FFFFFFFFFF
(1703560121.247259) can0 181356F4#284F034D1A00D0
(1703560121.247259) can0 1CECF456#13090002FF001100
(1703560121.247259) can0 1812F456#B60D0E0B000001
(1703560121.247259) can0 181056F4#D80FD00702
(1703560121.247259) can0 1812F456#B60D0E0B000001
(1703560121.247259) can0 181056F4#D80FD00702
(1703560121.247259) can0 1812F456#B60D0E0B000001
(1703560121.247259) can0 181056F4#D80FD00702
(1703560121.247259) can0 1812F456#B60D0E0B000001
(1703560121.247259) can0 181056F4#D80FD00702
(1703560121.247259) can0 1812F456#B60D0E0B000001
(1703560121.247259) can0 181056F4#D80FD00702
(1703560121.247259) can0 1CEC56F4#10090002FF001100
(1703560121.247259) can0 1CECF456#110201FFFF001100
(1703560121.247259) can0 1CEB56F4#01CF0D1D0B724122
(1703560121.247259) can0 1CEB56F4#025600FFFFFFFFFF
(1703560121.247259) can0 181356F4#284F034D1A00D0
(1703560121.247259) can0 1CECF456#13090002FF001100
(1703560121.247259) can0 1812F456#B60D0E0B000001
(1703560121.247259) can0 181056F4#D80FD00702
(1703560121.247259) can0 1812F456#B60D0E0B000001
(1703560121.247259) can0 181056F4#D80FD00702
(1703560121.247259) can0 1812F456#B60D0E0B000001
(1703560121.247259) can0 181056F4#D80FD00702
(1703560121.247259) can0 1812F456#B60D0E0B000001
(1703560121.247259) can0 181056F4#D80FD00702
(1703560121.247259) can0 1812F456#B60D0E0B000001
(1703560121.247259) can0 181056F4#D80FD00702
(1703560121.247259) can0 1CEC56F4#10090002FF001100
(1703560121.247259) can0 1CECF456#110201FFFF001100
(1703560121.247259) can0 1CEB56F4#01CF0D1F0B724122
(1703560121.247259) can0 1CEB56F4#025600FFFFFFFFFF
(1703560121.247259) can0 181356F4#284F034D1A00D0
(1703560121.247259) can0 1CECF456#13090002FF001100
(1703560121.247259) can0 1812F456#B60D0E0B000001
(1703560121.247259) can0 181056F4#D80FD00702
(1703560121.247259) can0 1812F456#B60D0E0B000001
(1703560121.247259) can0 181056F4#D80FD00702
(1703560121.247259) can0 1812F456#B60D0E0B000001
(1703560121.247259) can0 181056F4#D80FD00702
(1703560121.247259) can0 1812F456#B60D0E0B000001
(1703560121.247259) can0 181056F4#D80FD00702
(1703560121.247259) can0 1812F456#B60D0E0B000001
(1703560121.247259) can0 181056F4#D80FD00702
(1703560121.247259) can0 1CEC56F4#10090002FF001100
(1703560121.247259) can0 1CECF456#110201FFFF001100
(1703560121.247259) can0 1CEB56F4#01CF0D1D0B724122
(1703560121.247259) can0 1CEB56F4#025600FFFFFFFFFF
(1703560121.247259) can0 181356F4#284F034D1A00D0
(1703560121.247259) can0 1CECF456#13090002FF001100
(1703560121.247259) can0 1812F456#B60D0E0B000001
(1703560121.247259) can0 181056F4#D80FD00702
(1703560121.247259) can0 1812F456#B60D0E0B000001
(1703560121.247259) can0 181056F4#D80FD00702
(1703560121.247259) can0 1812F456#B60D0E0B000001
(1703560121.247259) can0 181056F4#D80FD00702
(1703560121.247259) can0 1812F456#B60D0E0B000001
(1703560121.247259) can0 181056F4#D80FD00702
(1703560121.247259) can0 1812F456#B60D0E0B000001
(1703560121.247259) can0 181056F4#D80FD00702
(1703560121.247259) can0 1CEC56F4#10090002FF001100
(1703560121.247259) can0 1CECF456#110201FFFF001100
(1703560121.247259) can0 1CEB56F4#01CF0D1F0B724122
(1703560121.247259) can0 1CEB56F4#025600FFFFFFFFFF
(1703560121.247259) can0 181356F4#284F034D1A00D0
(1703560121.247259) can0 1CECF456#13090002FF001100
(1703560121.247259) can0 1812F456#B60D0E0B000001
(1703560121.247259) can0 181056F4#D80FD00702
(1703560121.247259) can0 1812F456#B60D0E0B000001
(1703560121.247259) can0 181056F4#D80FD00702
(1703560121.247259) can0 1812F456#B60D0E0B000001
(1703560121.247259) can0 181056F4#D80FD00702
(1703560121.247259) can0 1812F456#B60D0E0B000001
(1703560121.247259) can0 181056F4#D80FD00702
(1703560121.247259) can0 1812F456#B60D0E0B000001
(1703560121.247259) can0 181056F4#D80FD00702
(1703560121.247259) can0 1CEC56F4#10090002FF001100
(1703560121.247259) can0 1CECF456#110201FFFF001100
(1703560121.247259) can0 1CEB56F4#01CF0D1D0B724122
(1703560121.247259) can0 1CEB56F4#025600FFFFFFFFFF
(1703560121.247259) can0 181356F4#284F034D1A00D0
(1703560121.247259) can0 1CECF456#13090002FF001100
(1703560121.247259) can0 1812F456#B60D0E0B000001
(1703560121.247259) can0 181056F4#D80FD00702
(1703560121.247259) can0 1812F456#B60D0E0B000001
(1703560121.247259) can0 181056F4#D80FD00702
(1703560121.247259) can0 1812F456#B60D0E0B000001
(1703560121.247259) can0 181056F4#D80FD00702
(1703560121.247259) can0 1812F456#B60D0E0B000001
(1703560121.247259) can0 181056F4#D80FD00702
(1703560121.247259) can0 1812F456#B60D0E0B000001
(1703560121.247259) can0 181056F4#D80FD00702
(1703560121.247259) can0 1CEC56F4#10090002FF001100
(1703560121.247259) can0 1CECF456#110201FFFF001100
(1703560121.247259) can0 1CEB56F4#01CF0D1F0B724122
(1703560121.247259) can0 1CEB56F4#025600FFFFFFFFFF
(1703560121.247259) can0 181356F4#284F034D1A00D0
(1703560121.247259) can0 1CECF456#13090002FF001100
(1703560121.247259) can0 1812F456#B60D0E0B000001
(1703560121.247259) can0 181056F4#D80FD00702
(1703560121.247259) can0 1812F456#B60D0E0B000001
(1703560121.247259) can0 181056F4#D80FD00702
(1703560121.247259) can0 1812F456#B60D0E0B000001
(1703560121.247259) can0 181056F4#D80FD00702
(1703560121.247259) can0 1812F456#B60D0E0B000001
(1703560121.247259) can0 181056F4#D80FD00702
(1703560121.247259) can0 1812F456#B60D0E0B000001
(1703560121.247259) can0 181056F4#D80FD00702
(1703560121.247259) can0 1CEC56F4#10090002FF001100
(1703560121.247259) can0 1CECF456#110201FFFF001100
(1703560121.247259) can0 1CEB56F4#01D00D1D0B724122
(1703560121.247259) can0 1CEB56F4#025600FFFFFFFFFF
(1703560121.247259) can0 181356F4#284F034D1A00D0
(1703560121.247259) can0 1CECF456#13090002FF001100
(1703560121.247259) can0 1812F456#B60D0E0B000001
(1703560121.247259) can0 181056F4#D80FD00702
(1703560121.247259) can0 1812F456#B60D0E0B000001
(1703560121.247259) can0 181056F4#D80FD00702
(1703560121.247259) can0 1812F456#B60D0E0B000001
(1703560121.247259) can0 181056F4#D80FD00702
(1703560121.247259) can0 1812F456#B60D0E0B000001
(1703560121.247259) can0 181056F4#D80FD00702
(1703560121.247259) can0 1812F456#B60D0E0B000001
(1703560121.247259) can0 181056F4#D80FD00702
(1703560121.247259) can0 1CEC56F4#10090002FF001100
(1703560121.247259) can0 1CECF456#110201FFFF001100
(1703560121.247259) can0 1CEB56F4#01D00D1F0B724122
(1703560121.247259) can0 1CEB56F4#025600FFFFFFFFFF
(1703560121.247259) can0 181356F4#284F034D1A00D0
(1703560121.247259) can0 1CECF456#13090002FF001100
(1703560121.247259) can0 1812F456#B60D0E0B000001
(1703560121.247259) can0 181056F4#D80FD00702
(1703560121.247259) can0 1812F456#B60D0E0B000001
(1703560121.247259) can0 181056F4#D80FD00702
(1703560121.247259) can0 1812F456#B60D0E0B000001
(1703560121.247259) can0 181056F4#D80FD00702
(1703560121.247259) can0 1812F456#B60D0E0B000001
(1703560121.247259) can0 181056F4#D80FD00702
(1703560121.247259) can0 1812F456#B60D0E0B000001
(1703560121.247259) can0 181056F4#D80FD00702
(1703560121.247259) can0 1CEC56F4#10090002FF001100
(1703560121.247259) can0 1CECF456#110201FFFF001100
(1703560121.247259) can0 1CEB56F4#01D00D1D0B724122
(1703560121.247259) can0 1CEB56F4#025600FFFFFFFFFF
(1703560121.247259) can0 181356F4#284F034D1A00D0
(1703560121.247259) can0 1CECF456#13090002FF001100
(1703560121.247259) can0 1812F456#B60D0E0B000001
(1703560121.247259) can0 181056F4#D80FD00702
(1703560121.247259) can0 1812F456#B60D0E0B000001
(1703560121.247259) can0 181056F4#D80FD00702
(1703560121.247259) can0 1812F456#B60D0E0B000001
(1703560121.247259) can0 181056F4#D80FD00702
(1703560121.247259) can0 1812F456#B60D0E0B000001
(1703560121.247259) can0 181056F4#D80FD00702
(1703560121.247259) can0 1812F456#B60D0E0B000001
(1703560121.247259) can0 181056F4#D80FD00702
(1703560121.247259) can0 1CEC56F4#10090002FF001100
(1703560121.247259) can0 1CECF456#110201FFFF001100
(1703560121.247259) can0 1CEB56F4#01D00D1F0B724122
(1703560121.247259) can0 1CEB56F4#025600FFFFFFFFFF
(1703560121.247259) can0 181356F4#284F034D1A00D0
(1703560121.247259) can0 1CECF456#13090002FF001100
(1703560121.247259) can0 1812F456#B60D0E0B000001
(1703560121.247259) can0 181056F4#D80FD00702
(1703560121.247259) can0 1812F456#B60D0E0B000001
(1703560121.247259) can0 181056F4#D80FD00702
(1703560121.247259) can0 1812F456#B60D0E0B000001
(1703560121.247259) can0 181056F4#D80FD00702
(1703560121.247259) can0 1812F456#B60D0E0B000001
(1703560121.247259) can0 181056F4#D80FD00702
(1703560121.247259) can0 1812F456#B60D0E0B000001
(1703560121.247259) can0 181056F4#D80FD00702
(1703560121.247259) can0 1CEC56F4#10090002FF001100
(1703560121.247259) can0 1CECF456#110201FFFF001100
(1703560121.247259) can0 1CEB56F4#01D00D1D0B724122
(1703560121.247259) can0 1CEB56F4#025600FFFFFFFFFF
(1703560121.247259) can0 181356F4#284F034D1A00D0
(1703560121.247259) can0 1CECF456#13090002FF001100
(1703560121.247259) can0 1812F456#B60D0E0B000001
(1703560121.247259) can0 181056F4#D80FD00702
(1703560121.247259) can0 1812F456#B60D0E0B000001
(1703560121.247259) can0 181056F4#D80FD00702
(1703560121.247259) can0 1812F456#B60D0E0B000001
(1703560121.247259) can0 181056F4#D80FD00702
(1703560121.247259) can0 1812F456#B60D0E0B000001
(1703560121.247259) can0 181056F4#D80FD00702
(1703560121.247259) can0 1812F456#B60D0E0B000001
(1703560121.247259) can0 181056F4#D80FD00702
(1703560121.247259) can0 1CEC56F4#10090002FF001100
(1703560121.247259) can0 1CECF456#110201FFFF001100
(1703560121.247259) can0 1CEB56F4#01D00D1F0B724122
(1703560121.247259) can0 1CEB56F4#025600FFFFFFFFFF
(1703560121.247259) can0 181356F4#284F034D1A00D0
(1703560121.247259) can0 1CECF456#13090002FF001100
(1703560121.247259) can0 1812F456#B60D0E0B000001
(1703560121.247259) can0 181056F4#D80FD00702
(1703560121.247259) can0 1812F456#B60D0E0B000001
(1703560121.247259) can0 181056F4#D80FD00702
(1703560121.247259) can0 1812F456#B60D0E0B000001
(1703560121.247259) can0 181056F4#D80FD00702
(1703560121.247259) can0 1812F456#B60D0E0B000001
(1703560121.247259) can0 181056F4#D80FD00702
(1703560121.247259) can0 1812F456#B60D0E0B000001
(1703560121.247259) can0 181056F4#D80FD00702
(1703560121.247259) can0 1CEC56F4#10090002FF001100
(1703560121.247259) can0 1CECF456#110201FFFF001100
(1703560121.247259) can0 1CEB56F4#01D00D1D0B724122
(1703560121.247259) can0 1CEB56F4#025600FFFFFFFFFF
(1703560121.247259) can0 181356F4#284F034D1A00D0
(1703560121.247259) can0 1CECF456#13090002FF001100
(1703560121.247259) can0 1812F456#B60D0E0B000001
(1703560121.247259) can0 181056F4#D80FD00702
(1703560121.247259) can0 1812F456#B60D0E0B000001
(1703560121.247259) can0 181056F4#D80FD00702
(1703560121.247259) can0 1812F456#B60D0E0B000001
(1703560121.247259) can0 181056F4#D80FD00702
(1703560121.247259) can0 1812F456#B60D0E0B000001
(1703560121.247259) can0 181056F4#D80FD00702
(1703560121.247259) can0 1812F456#B60D0E0B000001
(1703560121.247259) can0 181056F4#D80FD00702
(1703560121.247259) can0 1CEC56F4#10090002FF001100
(1703560121.247259) can0 1CECF456#110201FFFF001100
(1703560121.247259) can0 1CEB56F4#01D00D1F0B724122
(1703560121.247259) can0 1CEB56F4#025600FFFFFFFFFF
(1703560121.247259) can0 181356F4#284F034D1A00D0
(1703560121.247259) can0 1CECF456#13090002FF001100
(1703560121.247259) can0 1812F456#B60D0E0B000001
(1703560121.247259) can0 181056F4#D80FD00702
(1703560121.247259) can0 1812F456#B60D0E0B000001
(1703560121.247259) can0 181056F4#D80FD00702
(1703560121.247259) can0 1812F456#B60D0E0B000001
(1703560121.247259) can0 181056F4#D80FD00702
(1703560121.247259) can0 1812F456#B60D0E0B000001
(1703560121.247259) can0 181056F4#D80FD00702
(1703560121.247259) can0 1812F456#B60D0E0B000001
(1703560121.247259) can0 181056F4#D80FD00702
(1703560121.247259) can0 1CEC56F4#10090002FF001100
(1703560121.247259) can0 1CECF456#110201FFFF001100
(1703560121.247259) can0 1CEB56F4#01D00D1D0B724122
(1703560121.247259) can0 1CEB56F4#025600FFFFFFFFFF
(1703560121.247259) can0 181356F4#284F034D1A00D0
(1703560121.247259) can0 1CECF456#13090002FF001100
(1703560121.247259) can0 1812F456#B60D0E0B000001
(1703560121.247259) can0 181056F4#D80FD00702
(1703560121.247259) can0 1812F456#B60D0E0B000001
(1703560121.247259) can0 181056F4#D80FD00702
(1703560121.247259) can0 1812F456#B60D0E0B000001
(1703560121.247259) can0 181056F4#D80FD00702
(1703560121.247259) can0 1812F456#B60D0E0B000001
(1703560121.247259) can0 181056F4#D80FD00702
(1703560121.247259) can0 1812F456#B60D0E0B000001
(1703560121.247259) can0 181056F4#D80FD00702
(1703560121.247259) can0 1CEC56F4#10090002FF001100
(1703560121.247259) can0 1CECF456#110201FFFF001100
(1703560121.247259) can0 1CEB56F4#01D20D1F0B724122
(1703560121.247259) can0 1CEB56F4#025600FFFFFFFFFF
(1703560121.247259) can0 181356F4#284F034D1A00D0
(1703560121.247259) can0 1CECF456#13090002FF001100
(1703560121.247259) can0 1812F456#B60D0E0B000001
(1703560121.247259) can0 181056F4#D80FD00702
(1703560121.247259) can0 1812F456#B60D0E0B000001
(1703560121.247259) can0 181056F4#D80FD00702
(1703560121.247259) can0 1812F456#B60D0E0B000001
(1703560121.247259) can0 181056F4#D80FD00702
(1703560121.247259) can0 1812F456#B60D0E0B000001
(1703560121.247259) can0 181056F4#D80FD00702
(1703560121.247259) can0 1812F456#B60D0E0B000001
(1703560121.247259) can0 181056F4#D80FD00702
(1703560121.247259) can0 1CEC56F4#10090002FF001100
(1703560121.247259) can0 1CECF456#110201FFFF001100
(1703560121.247259) can0 1CEB56F4#01D20D1C0B724122
(1703560121.247259) can0 1CEB56F4#025600FFFFFFFFFF
(1703560121.247259) can0 181356F4#284F034D1A00D0
(1703560121.247259) can0 1CECF456#13090002FF001100
(1703560121.247259) can0 1812F456#B60D0E0B000001
(1703560121.247259) can0 181056F4#D80FD00702
(1703560121.247259) can0 1812F456#B60D0E0B000001
(1703560121.247259) can0 181056F4#D80FD00702
(1703560121.247259) can0 1812F456#B60D0E0B000001
(1703560121.247259) can0 181056F4#D80FD00702
(1703560121.247259) can0 1812F456#B60D0E0B000001
(1703560121.247259) can0 181056F4#D80FD00702
(1703560121.247259) can0 1812F456#B60D0E0B000001
(1703560121.247259) can0 181056F4#D80FD00702
(1703560121.247259) can0 1CEC56F4#10090002FF001100
(1703560121.247259) can0 1CECF456#110201FFFF001100
(1703560121.247259) can0 1CEB56F4#01D00D1E0B724122
(1703560121.247259) can0 1CEB56F4#025600FFFFFFFFFF
(1703560121.247259) can0 181356F4#284F034D1A00D0
(1703560121.247259) can0 1CECF456#13090002FF001100
(1703560121.247259) can0 1812F456#B60D0E0B000001
(1703560121.247259) can0 181056F4#D80FD00702
(1703560121.247259) can0 1812F456#B60D0E0B000001
(1703560121.247259) can0 181056F4#D80FD00702
(1703560121.247259) can0 1812F456#B60D0E0B000001
(1703560121.247259) can0 181056F4#D80FD00702
(1703560121.247259) can0 1812F456#B60D0E0B000001
(1703560121.247259) can0 181056F4#D80FD00702
(1703560121.247259) can0 1812F456#B60D0E0B000001
(1703560121.247259) can0 181056F4#D80FD00702
(1703560121.247259) can0 1CEC56F4#10090002FF001100
(1703560121.247259) can0 1CECF456#110201FFFF001100
(1703560121.247259) can0 1CEB56F4#01D20D1D0B724122
(1703560121.247259) can0 1CEB56F4#025600FFFFFFFFFF
(1703560121.247259) can0 181356F4#284F034D1A00D0
(1703560121.247259) can0 1CECF456#13090002FF001100
(1703560121.247259) can0 1812F456#B60D0E0B000001
(1703560121.247259) can0 181056F4#D80FD00702
(1703560121.247259) can0 1812F456#B60D0E0B000001
(1703560121.247259) can0 181056F4#D80FD00702
(1703560121.247259) can0 1812F456#B60D0E0B000001
(1703560121.247259) can0 181056F4#D80FD00702
(1703560121.247259) can0 1812F456#B60D0E0B000001
(1703560121.247259) can0 181056F4#D80FD00702
(1703560121.247259) can0 1812F456#B60D0E0B000001
(1703560121.247259) can0 181056F4#D80FD00702
(1703560121.247259) can0 1CEC56F4#10090002FF001100
(1703560121.247259) can0 1CECF456#110201FFFF001100
(1703560121.247259) can0 1CEB56F4#01D20D1E0B724122
(1703560121.247259) can0 1CEB56F4#025600FFFFFFFFFF
(1703560121.247259) can0 181356F4#284F034D1A00D0
(1703560121.247259) can0 1CECF456#13090002FF001100
(1703560121.247259) can0 1812F456#B60D0E0B000001
(1703560121.247259) can0 181056F4#D80FD00702
(1703560121.247259) can0 1812F456#B60D0E0B000001
(1703560121.247259) can0 181056F4#D80FD00702
(1703560121.247259) can0 1812F456#B60D0E0B000001
(1703560121.247259) can0 181056F4#D80FD00702
(1703560121.247259) can0 1812F456#B60D0E0B000001
(1703560121.247259) can0 181056F4#D80FD00702
(1703560121.247259) can0 1812F456#B60D0E0B000001
(1703560121.247259) can0 181056F4#D80FD00702
(1703560121.247259) can0 1CEC56F4#10090002FF001100
(1703560121.247259) can0 1CECF456#110201FFFF001100
(1703560121.247259) can0 1CEB56F4#01D20D1D0B724122
(1703560121.247259) can0 1CEB56F4#025600FFFFFFFFFF
(1703560121.247259) can0 181356F4#284F034D1A00D0
(1703560121.247259) can0 1CECF456#13090002FF001100
(1703560121.247259) can0 1812F456#B60D0E0B000001
(1703560121.247259) can0 181056F4#D80FD00702
(1703560121.247259) can0 1812F456#B60D0E0B000001
(1703560121.247259) can0 181056F4#D80FD00702
(1703560121.247259) can0 1812F456#B60D0E0B000001
(1703560121.247259) can0 181056F4#D80FD00702
(1703560121.247259) can0 1812F456#B60D0E0B000001
(1703560121.247259) can0 181056F4#D80FD00702
(1703560121.247259) can0 1812F456#B60D0E0B000001
(1703560121.247259) can0 181056F4#D80FD00702
(1703560121.247259) can0 1CEC56F4#10090002FF001100
(1703560121.247259) can0 1CECF456#110201FFFF001100
(1703560121.247259) can0 1CEB56F4#01D20D1E0B724122
(1703560121.247259) can0 1CEB56F4#025600FFFFFFFFFF
(1703560121.247259) can0 181356F4#284F034D1A00D0
(1703560121.247259) can0 1CECF456#13090002FF001100
(1703560121.247259) can0 1812F456#B60D0E0B000001
(1703560121.247259) can0 181056F4#D80FD00702
(1703560121.247259) can0 1812F456#B60D0E0B000001
(1703560121.247259) can0 181056F4#D80FD00702
(1703560121.247259) can0 1812F456#B60D0E0B000001
(1703560121.247259) can0 181056F4#D80FD00702
(1703560121.247259) can0 1812F456#B60D0E0B000001
(1703560121.247259) can0 181056F4#D80FD00702
(1703560121.247259) can0 1812F456#B60D0E0B000001
(1703560121.247259) can0 181056F4#D80FD00702
(1703560121.247259) can0 1CEC56F4#10090002FF001100
(1703560121.247259) can0 1CECF456#110201FFFF001100
(1703560121.247259) can0 1CEB56F4#01D20D1D0B724122
(1703560121.247259) can0 1CEB56F4#025600FFFFFFFFFF
(1703560121.247259) can0 181356F4#284F034D1A00D0
(1703560121.247259) can0 1CECF456#13090002FF001100
(1703560121.247259) can0 1812F456#B60D0E0B000001
(1703560121.247259) can0 181056F4#D80FD00702
(1703560121.247259) can0 1812F456#B60D0E0B000001
(1703560121.247259) can0 181056F4#D80FD00702
(1703560121.247259) can0 1812F456#B60D0E0B000001
(1703560121.247259) can0 181056F4#D80FD00702
(1703560121.247259) can0 1812F456#B60D0E0B000001
(1703560121.247259) can0 181056F4#D80FD00702
(1703560121.247259) can0 1812F456#B60D0E0B000001
(1703560121.247259) can0 181056F4#D80FD00702
(1703560121.247259) can0 1CEC56F4#10090002FF001100
(1703560121.247259) can0 1CECF456#110201FFFF001100
(1703560121.247259) can0 1CEB56F4#01D20D1E0B724122
(1703560121.247259) can0 1CEB56F4#025600FFFFFFFFFF
(1703560121.247259) can0 181356F4#284F034D1A00D0
(1703560121.247259) can0 1CECF456#13090002FF001100
(1703560121.247259) can0 1812F456#B60D0E0B000001
(1703560121.247259) can0 181056F4#D80FD00702
(1703560121.247259) can0 1812F456#B60D0E0B000001
(1703560121.247259) can0 181056F4#D80FD00702
(1703560121.247259) can0 1812F456#B60D0E0B000001
(1703560121.247259) can0 181056F4#D80FD00702
(1703560121.247259) can0 1812F456#B60D0E0B000001
(1703560121.247259) can0 181056F4#D80FD00702
(1703560121.247259) can0 1812F456#B60D0E0B000001
(1703560121.247259) can0 181056F4#D80FD00702
(1703560121.247259) can0 1CEC56F4#10090002FF001100
(1703560121.247259) can0 1CECF456#110201FFFF001100
(1703560121.247259) can0 1CEB56F4#01D20D1D0B724122
(1703560121.247259) can0 1CEB56F4#025600FFFFFFFFFF
(1703560121.247259) can0 181356F4#284F034D1A00D0
(1703560121.247259) can0 1CECF456#13090002FF001100
(1703560121.247259) can0 1812F456#B60D0E0B000001
(1703560121.247259) can0 181056F4#D80FD00702
(1703560121.247259) can0 1812F456#B60D0E0B000001
(1703560121.247259) can0 181056F4#D80FD00702
(1703560121.247259) can0 1812F456#B60D0E0B000001
(1703560121.247259) can0 181056F4#D80FD00702
(1703560121.247259) can0 1812F456#B60D0E0B000001
(1703560121.247259) can0 181056F4#D80FD00702
(1703560121.247259) can0 1812F456#B60D0E0B000001
(1703560121.247259) can0 181056F4#D80FD00702
(1703560121.247259) can0 1CEC56F4#10090002FF001100
(1703560121.247259) can0 1CECF456#110201FFFF001100
(1703560121.247259) can0 1CEB56F4#01D20D1E0B724122
(1703560121.247259) can0 1CEB56F4#025600FFFFFFFFFF
(1703560121.247259) can0 181356F4#284F034D1A00D0
(1703560121.247259) can0 1CECF456#13090002FF001100
(1703560121.247259) can0 1812F456#B60D0E0B000001
(1703560121.247259) can0 181056F4#D80FD00702
(1703560121.247259) can0 1812F456#B60D0E0B000001
(1703560121.247259) can0 181056F4#D80FD00702
(1703560121.247259) can0 1812F456#B60D0E0B000001
(1703560121.247259) can0 181056F4#D80FD00702
(1703560121.247259) can0 1812F456#B60D0E0B000001
(1703560121.247259) can0 181056F4#D80FD00702
(1703560121.247259) can0 1812F456#B60D0E0B000001
(1703560121.247259) can0 181056F4#D80FD00702
(1703560121.247259) can0 1CEC56F4#10090002FF001100
(1703560121.247259) can0 1CECF456#110201FFFF001100
(1703560121.247259) can0 1CEB56F4#01D30D1D0B724122
(1703560121.247259) can0 1CEB56F4#025600FFFFFFFFFF
(1703560121.247259) can0 181356F4#284F034D1A00D0
(1703560121.247259) can0 1CECF456#13090002FF001100
(1703560121.247259) can0 1812F456#B60D0E0B000001
(1703560121.247259) can0 181056F4#D80FD00702
(1703560121.247259) can0 1812F456#B60D0E0B000001
(1703560121.247259) can0 181056F4#D80FD00702
(1703560121.247259) can0 1812F456#B60D0E0B000001
(1703560121.247259) can0 181056F4#D80FD00702
(1703560121.247259) can0 1812F456#B60D0E0B000001
(1703560121.247259) can0 181056F4#D80FD00702
(1703560121.247259) can0 1812F456#B60D0E0B000001
(1703560121.247259) can0 181056F4#D80FD00702
(1703560121.247259) can0 1CEC56F4#10090002FF001100
(1703560121.247259) can0 1CECF456#110201FFFF001100
(1703560121.247259) can0 1CEB56F4#01D30D1E0B724122
(1703560121.247259) can0 1CEB56F4#025600FFFFFFFFFF
(1703560121.247259) can0 181356F4#284F034D1A00D0
(1703560121.247259) can0 1CECF456#13090002FF001100
(1703560121.247259) can0 1812F456#B60D0E0B000001
(1703560121.247259) can0 181056F4#D80FD00702
(1703560121.247259) can0 1812F456#B60D0E0B000001
(1703560121.247259) can0 181056F4#D80FD00702
(1703560121.247259) can0 1812F456#B60D0E0B000001
(1703560121.247259) can0 181056F4#D80FD00702
(1703560121.247259) can0 1812F456#B60D0E0B000001
(1703560121.247259) can0 181056F4#D80FD00702
(1703560121.247259) can0 1812F456#B60D0E0B000001
(1703560121.247259) can0 181056F4#D80FD00702
(1703560121.247259) can0 1CEC56F4#10090002FF001100
(1703560121.247259) can0 1CECF456#110201FFFF001100
(1703560121.247259) can0 1CEB56F4#01D30D1D0B724122
(1703560121.247259) can0 1CEB56F4#025600FFFFFFFFFF
(1703560121.247259) can0 181356F4#284F034D1A00D0
(1703560121.247259) can0 1CECF456#13090002FF001100
(1703560121.247259) can0 1812F456#B60D0E0B000001
(1703560121.247259) can0 181056F4#D80FD00702
(1703560121.247259) can0 1812F456#B60D0E0B000001
(1703560121.247259) can0 181056F4#D80FD00702
(1703560121.247259) can0 1812F456#B60D0E0B000001
(1703560121.247259) can0 181056F4#D80FD00702
(1703560121.247259) can0 1812F456#B60D0E0B000001
(1703560121.247259) can0 181056F4#D80FD00702
(1703560121.247259) can0 1812F456#B60D0E0B000001
(1703560121.247259) can0 181056F4#D80FD00702
(1703560121.247259) can0 1CEC56F4#10090002FF001100
(1703560121.247259) can0 1CECF456#110201FFFF001100
(1703560121.247259) can0 1CEB56F4#01D30D1E0B724122
(1703560121.247259) can0 1CEB56F4#025600FFFFFFFFFF
(1703560121.247259) can0 181356F4#284F034D1A00D0
(1703560121.247259) can0 1CECF456#13090002FF001100
(1703560121.247259) can0 1812F456#B60D0E0B000001
(1703560121.247259) can0 181056F4#D80FD00702
(1703560121.247259) can0 1812F456#B60D0E0B000001
(1703560121.247259) can0 181056F4#D80FD00702
(1703560121.247259) can0 1812F456#B60D0E0B000001
(1703560121.247259) can0 181056F4#D80FD00702
(1703560121.247259) can0 1812F456#B60D0E0B000001
(1703560121.247259) can0 181056F4#D80FD00702
(1703560121.247259) can0 1812F456#B60D0E0B000001
